CITIFILE A.01.00
#NA VERSION HP8753D.06.12
NAME DATA
VAR FREQ MAG 1601
DATA S[1,1] RI
SEG_LIST_BEGIN
SEG 50000000 250000000 1601
SEG_LIST_END
BEGIN
6.89147E-1,-7.17468E-1
6.86828E-1,-7.18994E-1
6.84753E-1,-7.20642E-1
6.82495E-1,-7.22534E-1
6.80664E-1,-7.24487E-1
6.78588E-1,-7.26806E-1
6.77002E-1,-7.29064E-1
6.75048E-1,-7.31445E-1
6.73400E-1,-7.34008E-1
6.71752E-1,-7.36328E-1
6.70318E-1,-7.38891E-1
6.68670E-1,-7.41302E-1
6.67236E-1,-7.43530E-1
6.65435E-1,-7.45391E-1
6.63848E-1,-7.47070E-1
6.62231E-1,-7.48443E-1
6.61010E-1,-7.49572E-1
6.59545E-1,-7.50549E-1
6.58081E-1,-7.51586E-1
6.56616E-1,-7.52685E-1
6.55029E-1,-7.53784E-1
6.53564E-1,-7.54760E-1
6.51855E-1,-7.56225E-1
6.49902E-1,-7.57690E-1
6.47460E-1,-7.59216E-1
6.45202E-1,-7.60864E-1
6.42730E-1,-7.62512E-1
6.39831E-1,-7.64068E-1
6.37054E-1,-7.65533E-1
6.33972E-1,-7.66876E-1
6.31164E-1,-7.68310E-1
6.27807E-1,-7.69775E-1
6.25061E-1,-7.71301E-1
6.22314E-1,-7.72766E-1
6.19751E-1,-7.74719E-1
6.17309E-1,-7.76489E-1
6.14746E-1,-7.78686E-1
6.12426E-1,-7.81005E-1
6.10107E-1,-7.83508E-1
6.07666E-1,-7.86254E-1
6.05590E-1,-7.88818E-1
6.03454E-1,-7.91412E-1
6.01074E-1,-7.94128E-1
5.99212E-1,-7.96661E-1
5.97168E-1,-7.98645E-1
5.95214E-1,-8.00537E-1
5.93383E-1,-8.02520E-1
5.91796E-1,-8.03833E-1
5.9021E-1,-8.05053E-1
5.88562E-1,-8.06335E-1
5.87158E-1,-8.07556E-1
5.85693E-1,-8.08715E-1
5.84228E-1,-8.10058E-1
5.82641E-1,-8.11767E-1
5.80871E-1,-8.13171E-1
5.78735E-1,-8.14758E-1
5.76477E-1,-8.16101E-1
5.74218E-1,-8.17871E-1
5.71746E-1,-8.19091E-1
5.69152E-1,-8.20495E-1
5.66253E-1,-8.21594E-1
5.63415E-1,-8.22723E-1
5.60638E-1,-8.237E-1
5.57861E-1,-8.24829E-1
5.55358E-1,-8.26049E-1
5.52856E-1,-8.27392E-1
5.50415E-1,-8.28979E-1
5.47973E-1,-8.30566E-1
5.45654E-1,-8.32641E-1
5.43335E-1,-8.34716E-1
5.40710E-1,-8.37036E-1
5.38391E-1,-8.39355E-1
5.36132E-1,-8.41613E-1
5.33691E-1,-8.43658E-1
5.31189E-1,-8.45611E-1
5.28900E-1,-8.47656E-1
5.26489E-1,-8.49212E-1
5.24383E-1,-8.50555E-1
5.22247E-1,-8.51837E-1
5.20141E-1,-8.52844E-1
5.18066E-1,-8.53942E-1
5.15930E-1,-8.54919E-1
5.14038E-1,-8.55835E-1
5.12085E-1,-8.57055E-1
5.09643E-1,-8.58276E-1
5.07202E-1,-8.59741E-1
5.04699E-1,-8.61267E-1
5.0177E-1,-8.62731E-1
5.00183E-1,-8.64685E-1
4.96978E-1,-8.66180E-1
4.93621E-1,-8.67309E-1
4.90142E-1,-8.68408E-1
4.86908E-1,-8.69415E-1
4.83551E-1,-8.70544E-1
4.80407E-1,-8.71429E-1
4.77111E-1,-8.72680E-1
4.74121E-1,-8.73840E-1
4.71191E-1,-8.75549E-1
4.68383E-1,-8.77197E-1
4.65698E-1,-8.79150E-1
4.62768E-1,-8.81469E-1
4.59960E-1,-8.83422E-1
4.57153E-1,-8.85681E-1
4.54467E-1,-8.88183E-1
4.51690E-1,-8.90197E-1
4.49005E-1,-8.92486E-1
4.46472E-1,-8.94256E-1
4.43969E-1,-8.95965E-1
4.41680E-1,-8.97247E-1
4.39483E-1,-8.98498E-1
4.37408E-1,-8.99505E-1
4.35302E-1,-9.00573E-1
4.33227E-1,-9.01489E-1
4.31152E-1,-9.02221E-1
4.28955E-1,-9.03198E-1
4.26757E-1,-9.04296E-1
4.24194E-1,-9.05517E-1
4.21508E-1,-9.06616E-1
4.18396E-1,-9.07653E-1
4.15039E-1,-9.08752E-1
4.11590E-1,-9.09729E-1
4.07928E-1,-9.10430E-1
4.03930E-1,-9.11163E-1
4.00146E-1,-9.11743E-1
3.96118E-1,-9.12292E-1
3.92242E-1,-9.12963E-1
3.88397E-1,-9.13635E-1
3.84399E-1,-9.14550E-1
3.80859E-1,-9.15771E-1
3.77075E-1,-9.17236E-1
3.73291E-1,-9.18945E-1
3.69506E-1,-9.20898E-1
3.65722E-1,-9.23095E-1
3.61816E-1,-9.25415E-1
3.58093E-1,-9.27612E-1
3.54156E-1,-9.29687E-1
3.50555E-1,-9.31640E-1
3.46984E-1,-9.33624E-1
3.43627E-1,-9.34997E-1
3.40545E-1,-9.36554E-1
3.37371E-1,-9.37866E-1
3.34655E-1,-9.38995E-1
3.31909E-1,-9.40063E-1
3.29345E-1,-9.40795E-1
3.26782E-1,-9.41833E-1
3.24096E-1,-9.42871E-1
3.21533E-1,-9.43847E-1
3.18481E-1,-9.44946E-1
3.15307E-1,-9.45800E-1
3.12011E-1,-9.47021E-1
3.08532E-1,-9.47692E-1
3.04473E-1,-9.47906E-1
3.00598E-1,-9.48394E-1
2.96417E-1,-9.48547E-1
2.92419E-1,-9.48669E-1
2.88085E-1,-9.48547E-1
2.84027E-1,-9.48761E-1
2.80029E-1,-9.48791E-1
2.75665E-1,-9.49249E-1
2.71545E-1,-9.49707E-1
2.67334E-1,-9.50439E-1
2.62817E-1,-9.51660E-1
2.58544E-1,-9.52758E-1
2.54150E-1,-9.54223E-1
2.49755E-1,-9.55810E-1
2.45178E-1,-9.57153E-1
2.40570E-1,-9.58770E-1
2.36267E-1,-9.60113E-1
2.31964E-1,-9.61425E-1
2.27783E-1,-9.62585E-1
2.23846E-1,-9.63684E-1
2.20092E-1,-9.64447E-1
2.16583E-1,-9.65118E-1
2.13287E-1,-9.65911E-1
2.09838E-1,-9.66644E-1
2.06665E-1,-9.67224E-1
2.03247E-1,-9.67895E-1
1.99829E-1,-9.68505E-1
1.96167E-1,-9.69238E-1
1.92504E-1,-9.69848E-1
1.88476E-1,-9.70459E-1
1.84204E-1,-9.70764E-1
1.80175E-1,-9.70825E-1
1.75476E-1,-9.70825E-1
1.70806E-1,-9.70550E-1
1.66259E-1,-9.70184E-1
1.61590E-1,-9.69726E-1
1.57165E-1,-9.69299E-1
1.52404E-1,-9.68872E-1
1.48010E-1,-9.6875E-1
1.43371E-1,-9.68689E-1
1.38671E-1,-9.68994E-1
1.33789E-1,-9.69604E-1
1.29150E-1,-9.70092E-1
1.24267E-1,-9.71069E-1
1.19506E-1,-9.71923E-1
1.14379E-1,-9.72656E-1
1.09527E-1,-9.73419E-1
1.04583E-1,-9.74548E-1
1.00036E-1,-9.75067E-1
0.95275E-1,-9.75341E-1
0.91033E-1,-9.75708E-1
0.86822E-1,-9.75921E-1
0.82885E-1,-9.76257E-1
0.79132E-1,-9.76196E-1
0.7547E-1,-9.76348E-1
0.71624E-1,-9.76440E-1
0.67993E-1,-9.76562E-1
0.64209E-1,-9.76562E-1
0.60180E-1,-9.76562E-1
0.56030E-1,-9.76440E-1
0.51635E-1,-9.76074E-1
0.46997E-1,-9.75463E-1
0.42144E-1,-9.74823E-1
0.37353E-1,-9.73602E-1
0.32287E-1,-9.72381E-1
0.27099E-1,-9.70916E-1
0.21972E-1,-9.69635E-1
0.16784E-1,-9.67987E-1
0.11596E-1,-9.66613E-1
0.06378E-1,-9.65271E-1
0.01068E-1,-9.64202E-1
-4.51660E-3,-9.63378E-1
-1.01318E-2,-9.62768E-1
-1.59912E-2,-9.62158E-1
-2.19726E-2,-9.62036E-1
-2.79541E-2,-9.61669E-1
-3.39355E-2,-9.61669E-1
-3.97949E-2,-9.61242E-1
-4.58679E-2,-9.60845E-1
-5.17578E-2,-9.60418E-1
-5.70068E-2,-9.59777E-1
-6.25915E-2,-9.59259E-1
-6.76879E-2,-9.58557E-1
-7.27539E-2,-9.58038E-1
-7.75451E-2,-9.57336E-1
-8.18786E-2,-9.56695E-1
-8.64257E-2,-9.55993E-1
-9.09423E-2,-9.55078E-1
-9.54589E-2,-9.54345E-1
-1.00219E-1,-9.53613E-1
-1.04980E-1,-9.52758E-1
-1.09863E-1,-9.51416E-1
-1.14868E-1,-9.49951E-1
-1.19995E-1,-9.48364E-1
-1.25244E-1,-9.46533E-1
-1.30401E-1,-9.44335E-1
-1.35681E-1,-9.41741E-1
-1.40838E-1,-9.39239E-1
-1.46026E-1,-9.36798E-1
-1.51214E-1,-9.34265E-1
-1.56494E-1,-9.31762E-1
-1.61712E-1,-9.29779E-1
-1.67511E-1,-9.27490E-1
-1.73217E-1,-9.25415E-1
-1.79077E-1,-9.23461E-1
-1.85058E-1,-9.21752E-1
-1.91162E-1,-9.20043E-1
-1.97143E-1,-9.18090E-1
-2.03308E-1,-9.16259E-1
-2.09259E-1,-9.14154E-1
-2.15301E-1,-9.12017E-1
-2.21069E-1,-9.09912E-1
-2.26715E-1,-9.07470E-1
-2.32116E-1,-9.05212E-1
-2.37487E-1,-9.02740E-1
-2.42584E-1,-9.00482E-1
-2.47650E-1,-8.98193E-1
-2.52594E-1,-8.95874E-1
-2.57751E-1,-8.93676E-1
-2.62695E-1,-8.90991E-1
-2.67944E-1,-8.88671E-1
-2.73193E-1,-8.85742E-1
-2.78564E-1,-8.82690E-1
-2.83935E-1,-8.79394E-1
-2.89367E-1,-8.76220E-1
-2.94860E-1,-8.72314E-1
-3.00415E-1,-8.68255E-1
-3.05664E-1,-8.64074E-1
-3.11126E-1,-8.59771E-1
-3.16558E-1,-8.55255E-1
-3.21929E-1,-8.51379E-1
-3.27484E-1,-8.47076E-1
-3.33038E-1,-8.42804E-1
-3.38897E-1,-8.38653E-1
-3.44848E-1,-8.34655E-1
-3.50708E-1,-8.30688E-1
-3.56811E-1,-8.26660E-1
-3.63159E-1,-8.22753E-1
-3.69201E-1,-8.18847E-1
-3.75122E-1,-8.14758E-1
-3.81225E-1,-8.10546E-1
-3.87054E-1,-8.06274E-1
-3.92730E-1,-8.02093E-1
-3.98010E-1,-7.97546E-1
-4.03381E-1,-7.93060E-1
-4.08538E-1,-7.88665E-1
-4.13635E-1,-7.84271E-1
-4.18609E-1,-7.80090E-1
-4.23278E-1,-7.75573E-1
-4.28100E-1,-7.71118E-1
-4.33044E-1,-7.66357E-1
-4.37744E-1,-7.61718E-1
-4.42504E-1,-7.56835E-1
-4.47265E-1,-7.51586E-1
-4.52026E-1,-7.46276E-1
-4.56726E-1,-7.40600E-1
-4.61364E-1,-7.34802E-1
-4.66033E-1,-7.28546E-1
-4.7052E-1,-7.22351E-1
-4.75006E-1,-7.15789E-1
-4.79309E-1,-7.09533E-1
-4.83917E-1,-7.02941E-1
-4.88250E-1,-6.96624E-1
-4.92950E-1,-6.89941E-1
-4.97711E-1,-6.83471E-1
-5.02594E-1,-6.77093E-1
-5.07324E-1,-6.70349E-1
-5.12268E-1,-6.63879E-1
-5.17334E-1,-6.57348E-1
-5.22094E-1,-6.50695E-1
-5.26794E-1,-6.44043E-1
-5.3125E-1,-6.37268E-1
-5.36010E-1,-6.30432E-1
-5.40283E-1,-6.23504E-1
-5.44555E-1,-6.16577E-1
-5.48461E-1,-6.09741E-1
-5.52429E-1,-6.02813E-1
-5.56304E-1,-5.95886E-1
-5.59814E-1,-5.88989E-1
-5.63415E-1,-5.82061E-1
-5.66955E-1,-5.75164E-1
-5.70404E-1,-5.68084E-1
-5.73791E-1,-5.60852E-1
-5.77148E-1,-5.53466E-1
-5.80383E-1,-5.45959E-1
-5.83313E-1,-5.38452E-1
-5.86181E-1,-5.30578E-1
-5.89050E-1,-5.22583E-1
-5.91674E-1,-5.14404E-1
-5.94177E-1,-5.06469E-1
-5.96557E-1,-4.98138E-1
-5.98785E-1,-4.89807E-1
-6.00952E-1,-4.81475E-1
-6.03149E-1,-4.73083E-1
-6.05438E-1,-4.64782E-1
-6.07574E-1,-4.56207E-1
-6.09710E-1,-4.47723E-1
-6.11908E-1,-4.39514E-1
-6.13891E-1,-4.30908E-1
-6.15905E-1,-4.22424E-1
-6.17797E-1,-4.14001E-1
-6.19445E-1,-4.05334E-1
-6.21154E-1,-3.96789E-1
-6.22406E-1,-3.88305E-1
-6.23809E-1,-3.79577E-1
-6.24786E-1,-3.70910E-1
-6.25854E-1,-3.62365E-1
-6.26586E-1,-3.53759E-1
-6.27319E-1,-3.45214E-1
-6.27807E-1,-3.36761E-1
-6.28265E-1,-3.28125E-1
-6.28479E-1,-3.19488E-1
-6.28875E-1,-3.10974E-1
-6.28875E-1,-3.02459E-1
-6.28875E-1,-2.93731E-1
-6.28723E-1,-2.84973E-1
-6.2854E-1,-2.76306E-1
-6.27929E-1,-2.67395E-1
-6.27471E-1,-2.58606E-1
-6.2677E-1,-2.49633E-1
-6.25701E-1,-2.40814E-1
-6.24816E-1,-2.31903E-1
-6.23626E-1,-2.23297E-1
-6.22131E-1,-2.14386E-1
-6.20910E-1,-2.05535E-1
-6.19445E-1,-1.96960E-1
-6.18042E-1,-1.88324E-1
-6.16272E-1,-1.79595E-1
-6.14410E-1,-1.7099E-1
-6.12731E-1,-1.62658E-1
-6.10656E-1,-1.54113E-1
-6.08612E-1,-1.45782E-1
-6.06414E-1,-1.37359E-1
-6.04064E-1,-1.28967E-1
-6.01409E-1,-1.20697E-1
-5.98815E-1,-1.12579E-1
-5.95855E-1,-1.04400E-1
-5.92926E-1,-9.64050E-2
-5.89630E-1,-8.82568E-2
-5.86425E-1,-8.03527E-2
-5.82946E-1,-7.23877E-2
-5.79437E-1,-6.44836E-2
-5.75836E-1,-5.66101E-2
-5.72021E-1,-4.87670E-2
-5.68298E-1,-4.10461E-2
-5.64361E-1,-3.33557E-2
-5.60363E-1,-2.56652E-2
-5.56152E-1,-1.79443E-2
-5.51971E-1,-1.04064E-2
-5.47637E-1,-2.7771E-3
-5.43212E-1,0.04638E-1
-5.38635E-1,0.11962E-1
-5.34057E-1,0.19348E-1
-5.29144E-1,0.26519E-1
-5.24322E-1,0.33783E-1
-5.19317E-1,0.40771E-1
-5.14373E-1,0.47637E-1
-5.09277E-1,0.54443E-1
-5.04303E-1,0.61035E-1
-4.98886E-1,0.67581E-1
-4.93743E-1,0.73989E-1
-4.88372E-1,0.80307E-1
-4.82986E-1,0.86517E-1
-4.77600E-1,0.92712E-1
-4.71954E-1,0.98724E-1
-4.66369E-1,1.04522E-1
-4.60479E-1,1.10321E-1
-4.54711E-1,1.16058E-1
-4.48791E-1,1.21658E-1
-4.42749E-1,1.27044E-1
-4.36538E-1,1.32385E-1
-4.30419E-1,1.37695E-1
-4.24301E-1,1.42852E-1
-4.18014E-1,1.47750E-1
-4.11727E-1,1.52740E-1
-4.05471E-1,1.57547E-1
-3.99169E-1,1.62231E-1
-3.92837E-1,1.66900E-1
-3.86413E-1,1.71432E-1
-3.79882E-1,1.75964E-1
-3.73382E-1,1.80236E-1
-3.66973E-1,1.84539E-1
-3.6026E-1,1.88690E-1
-3.53744E-1,1.92764E-1
-3.47183E-1,1.96563E-1
-3.40393E-1,2.00332E-1
-3.33862E-1,2.03949E-1
-3.27117E-1,2.07305E-1
-3.20373E-1,2.10739E-1
-3.13873E-1,2.13882E-1
-3.07067E-1,2.17025E-1
-3.00354E-1,2.19848E-1
-2.93746E-1,2.22564E-1
-2.87048E-1,2.25402E-1
-2.80273E-1,2.28042E-1
-2.73452E-1,2.30545E-1
-2.66662E-1,2.32849E-1
-2.59765E-1,2.35290E-1
-2.52960E-1,2.37365E-1
-2.46185E-1,2.39608E-1
-2.39151E-1,2.41531E-1
-2.32193E-1,2.43515E-1
-2.25387E-1,2.45254E-1
-2.18429E-1,2.46963E-1
-2.11593E-1,2.48596E-1
-2.04772E-1,2.50167E-1
-1.97937E-1,2.51663E-1
-1.91207E-1,2.52929E-1
-1.84417E-1,2.54364E-1
-1.77658E-1,2.55584E-1
-1.70913E-1,2.56820E-1
-1.64199E-1,2.57873E-1
-1.57470E-1,2.58941E-1
-1.50848E-1,2.59826E-1
-1.44256E-1,2.60772E-1
-1.37649E-1,2.61581E-1
-1.31042E-1,2.62222E-1
-1.24527E-1,2.62863E-1
-1.18133E-1,2.63336E-1
-1.11755E-1,2.63687E-1
-1.05484E-1,2.64114E-1
-9.93194E-2,2.64267E-1
-9.31701E-2,2.64404E-1
-8.70666E-2,2.64450E-1
-8.09631E-2,2.64511E-1
-7.47833E-2,2.64434E-1
-6.88781E-2,2.64267E-1
-6.28814E-2,2.64068E-1
-5.68542E-2,2.63793E-1
-5.09033E-2,2.63427E-1
-4.51049E-2,2.62939E-1
-3.91693E-2,2.62481E-1
-3.35235E-2,2.61856E-1
-2.77862E-2,2.61184E-1
-2.20184E-2,2.60650E-1
-1.65405E-2,2.59765E-1
-1.10321E-2,2.58987E-1
-5.59997E-3,2.58117E-1
-2.59399E-4,2.57232E-1
0.05203E-1,2.56271E-1
0.10467E-1,2.55203E-1
0.15823E-1,2.54074E-1
0.20950E-1,2.52944E-1
0.26062E-1,2.51785E-1
0.31219E-1,2.50457E-1
0.36346E-1,2.49237E-1
0.41320E-1,2.47909E-1
0.46257E-1,2.46398E-1
0.51132E-1,2.44941E-1
0.55969E-1,2.43370E-1
0.60524E-1,2.41760E-1
0.65223E-1,2.40165E-1
0.69664E-1,2.38487E-1
0.74310E-1,2.36671E-1
0.78704E-1,2.34886E-1
0.83122E-1,2.33108E-1
0.87471E-1,2.31178E-1
0.91903E-1,2.29263E-1
0.96206E-1,2.27386E-1
1.00502E-1,2.25418E-1
1.04690E-1,2.23358E-1
1.08871E-1,2.21313E-1
1.12960E-1,2.19184E-1
1.16958E-1,2.17102E-1
1.20910E-1,2.14935E-1
1.24900E-1,2.12654E-1
1.28738E-1,2.10418E-1
1.32499E-1,2.08282E-1
1.36268E-1,2.05978E-1
1.39976E-1,2.03704E-1
1.43547E-1,2.01400E-1
1.47239E-1,1.99050E-1
1.50795E-1,1.96678E-1
1.54342E-1,1.94274E-1
1.57791E-1,1.91925E-1
1.61308E-1,1.89529E-1
1.64672E-1,1.86981E-1
1.68106E-1,1.84478E-1
1.71485E-1,1.819E-1
1.74728E-1,1.79466E-1
1.77879E-1,1.76910E-1
1.81068E-1,1.74400E-1
1.84143E-1,1.71798E-1
1.87210E-1,1.69273E-1
1.90239E-1,1.66755E-1
1.93183E-1,1.64230E-1
1.96128E-1,1.61651E-1
1.99142E-1,1.59103E-1
2.02056E-1,1.56616E-1
2.04910E-1,1.53961E-1
2.07695E-1,1.51512E-1
2.10456E-1,1.48986E-1
2.13211E-1,1.46415E-1
2.15957E-1,1.43951E-1
2.18528E-1,1.41380E-1
2.21015E-1,1.38870E-1
2.23426E-1,1.36451E-1
2.25814E-1,1.33956E-1
2.28141E-1,1.31454E-1
2.30331E-1,1.28990E-1
2.32521E-1,1.26503E-1
2.34550E-1,1.24092E-1
2.36694E-1,1.21551E-1
2.38616E-1,1.18988E-1
2.40585E-1,1.16500E-1
2.42553E-1,1.13906E-1
2.44392E-1,1.11236E-1
2.46208E-1,1.08612E-1
2.47963E-1,1.05941E-1
2.49595E-1,1.03279E-1
2.51174E-1,1.00509E-1
2.52822E-1,0.97732E-1
2.54318E-1,0.94924E-1
2.55859E-1,0.92193E-1
2.5737E-1,0.89325E-1
2.58804E-1,0.86456E-1
2.60330E-1,0.83541E-1
2.61947E-1,0.80596E-1
2.63504E-1,0.77682E-1
2.65045E-1,0.74798E-1
2.66677E-1,0.71899E-1
2.68142E-1,0.68847E-1
2.69699E-1,0.65948E-1
2.71301E-1,0.63018E-1
2.72857E-1,0.60134E-1
2.74368E-1,0.57312E-1
2.75924E-1,0.54489E-1
2.7742E-1,0.51681E-1
2.78945E-1,0.48889E-1
2.80395E-1,0.46218E-1
2.81799E-1,0.43609E-1
2.83264E-1,0.41046E-1
2.84698E-1,0.38543E-1
2.86102E-1,0.35980E-1
2.87521E-1,0.33523E-1
2.88818E-1,0.31082E-1
2.90100E-1,0.28732E-1
2.91381E-1,0.26245E-1
2.92556E-1,0.23986E-1
2.93655E-1,0.21621E-1
2.94723E-1,0.19348E-1
2.95837E-1,0.17013E-1
2.96752E-1,0.14831E-1
2.97653E-1,0.12588E-1
2.98507E-1,0.10406E-1
2.99133E-1,0.08056E-1
2.99896E-1,0.05920E-1
3.00659E-1,0.03631E-1
3.01330E-1,0.01556E-1
3.01910E-1,-7.32421E-4
3.02581E-1,-2.96020E-3
3.03100E-1,-5.21850E-3
3.03680E-1,-7.49206E-3
3.04260E-1,-9.76562E-3
3.04870E-1,-1.20544E-2
3.05252E-1,-1.43127E-2
3.05679E-1,-1.66168E-2
3.06152E-1,-1.88751E-2
3.06564E-1,-2.11792E-2
3.06884E-1,-2.34680E-2
3.07403E-1,-2.57873E-2
3.07556E-1,-2.79846E-2
3.08075E-1,-3.02734E-2
3.08319E-1,-3.24707E-2
3.08746E-1,-3.46679E-2
3.09051E-1,-3.68652E-2
3.09387E-1,-3.90625E-2
3.09722E-1,-4.12597E-2
3.10012E-1,-4.34417E-2
3.10333E-1,-4.56390E-2
3.10638E-1,-4.78210E-2
3.10852E-1,-5.00335E-2
3.11065E-1,-5.21392E-2
3.11309E-1,-5.42602E-2
3.11370E-1,-5.64575E-2
3.11691E-1,-5.85327E-2
3.11798E-1,-6.05773E-2
3.11889E-1,-6.26220E-2
3.11981E-1,-6.46057E-2
3.12133E-1,-6.66198E-2
3.12377E-1,-6.87866E-2
3.12469E-1,-7.07397E-2
3.12561E-1,-7.26928E-2
3.12835E-1,-7.47070E-2
3.12896E-1,-7.66143E-2
3.12957E-1,-7.86285E-2
3.13125E-1,-8.04748E-2
3.13140E-1,-8.23974E-2
3.13217E-1,-8.41369E-2
3.13247E-1,-8.60443E-2
3.13156E-1,-8.76922E-2
3.13079E-1,-8.95538E-2
3.13049E-1,-9.13696E-2
3.13049E-1,-9.29870E-2
3.12957E-1,-9.47265E-2
3.12835E-1,-9.62829E-2
3.12652E-1,-9.80224E-2
3.12469E-1,-9.96398E-2
3.12377E-1,-1.01104E-1
3.12149E-1,-1.02813E-1
3.11721E-1,-1.04400E-1
3.11477E-1,-1.06124E-1
3.11157E-1,-1.07696E-1
3.10668E-1,-1.09252E-1
3.10180E-1,-1.10961E-1
3.09661E-1,-1.12609E-1
3.09112E-1,-1.14257E-1
3.08532E-1,-1.15875E-1
3.07952E-1,-1.17645E-1
3.07525E-1,-1.19323E-1
3.06915E-1,-1.21063E-1
3.06427E-1,-1.22802E-1
3.05847E-1,-1.24633E-1
3.05511E-1,-1.26342E-1
3.04977E-1,-1.28234E-1
3.04550E-1,-1.29974E-1
3.04077E-1,-1.31790E-1
3.03680E-1,-1.33651E-1
3.03299E-1,-1.35391E-1
3.02978E-1,-1.37161E-1
3.02566E-1,-1.38946E-1
3.02169E-1,-1.40640E-1
3.01940E-1,-1.42242E-1
3.01666E-1,-1.43890E-1
3.01452E-1,-1.45538E-1
3.01147E-1,-1.47064E-1
3.00964E-1,-1.48559E-1
3.00811E-1,-1.49932E-1
3.00598E-1,-1.51275E-1
3.00445E-1,-1.52557E-1
3.00186E-1,-1.53793E-1
2.99987E-1,-1.55029E-1
2.99652E-1,-1.56204E-1
2.99331E-1,-1.57272E-1
2.98904E-1,-1.58416E-1
2.98477E-1,-1.59484E-1
2.97882E-1,-1.60491E-1
2.97317E-1,-1.61453E-1
2.96691E-1,-1.62384E-1
2.9599E-1,-1.63299E-1
2.95227E-1,-1.64276E-1
2.94342E-1,-1.65161E-1
2.93640E-1,-1.66229E-1
2.92602E-1,-1.67175E-1
2.91870E-1,-1.68121E-1
2.90985E-1,-1.69281E-1
2.89962E-1,-1.70242E-1
2.89001E-1,-1.71356E-1
2.87872E-1,-1.72485E-1
2.86956E-1,-1.73660E-1
2.85781E-1,-1.74881E-1
2.84744E-1,-1.76055E-1
2.83645E-1,-1.77383E-1
2.82669E-1,-1.78619E-1
2.81677E-1,-1.79901E-1
2.80639E-1,-1.81213E-1
2.79632E-1,-1.82586E-1
2.78747E-1,-1.83776E-1
2.77801E-1,-1.85119E-1
2.77008E-1,-1.86340E-1
2.76214E-1,-1.87591E-1
2.75405E-1,-1.88934E-1
2.74627E-1,-1.90139E-1
2.73849E-1,-1.91391E-1
2.73147E-1,-1.92596E-1
2.72354E-1,-1.93649E-1
2.71667E-1,-1.94839E-1
2.70904E-1,-1.95953E-1
2.70095E-1,-1.96884E-1
2.69287E-1,-1.97982E-1
2.68524E-1,-1.98852E-1
2.67730E-1,-1.99737E-1
2.66937E-1,-2.00592E-1
2.66204E-1,-2.01416E-1
2.65441E-1,-2.02270E-1
2.64587E-1,-2.03002E-1
2.63732E-1,-2.03796E-1
2.62939E-1,-2.04498E-1
2.61932E-1,-2.05184E-1
2.61062E-1,-2.05902E-1
2.60131E-1,-2.06604E-1
2.59002E-1,-2.07321E-1
2.57965E-1,-2.07977E-1
2.56897E-1,-2.08663E-1
2.55828E-1,-2.09365E-1
2.54638E-1,-2.10037E-1
2.53601E-1,-2.10723E-1
2.52410E-1,-2.11364E-1
2.51251E-1,-2.12036E-1
2.50122E-1,-2.12677E-1
2.48962E-1,-2.13287E-1
2.47863E-1,-2.14080E-1
2.46696E-1,-2.14836E-1
2.45651E-1,-2.15530E-1
2.44445E-1,-2.16217E-1
2.43225E-1,-2.16918E-1
2.42141E-1,-2.17620E-1
2.40890E-1,-2.18414E-1
2.39730E-1,-2.19070E-1
2.38494E-1,-2.19741E-1
2.37350E-1,-2.20413E-1
2.36175E-1,-2.21069E-1
2.35015E-1,-2.21801E-1
2.33795E-1,-2.22412E-1
2.32666E-1,-2.23053E-1
2.31536E-1,-2.23663E-1
2.30621E-1,-2.24304E-1
2.29461E-1,-2.24945E-1
2.28393E-1,-2.25410E-1
2.27401E-1,-2.25967E-1
2.26333E-1,-2.26577E-1
2.25296E-1,-2.27111E-1
2.24166E-1,-2.27676E-1
2.23083E-1,-2.27981E-1
2.22015E-1,-2.28500E-1
2.20932E-1,-2.28927E-1
2.19924E-1,-2.29248E-1
2.1875E-1,-2.29675E-1
2.17712E-1,-2.29919E-1
2.16644E-1,-2.30255E-1
2.15637E-1,-2.30499E-1
2.14477E-1,-2.30560E-1
2.13409E-1,-2.30987E-1
2.12448E-1,-2.31140E-1
2.11433E-1,-2.31292E-1
2.10220E-1,-2.31567E-1
2.09137E-1,-2.31674E-1
2.07962E-1,-2.3172E-1
2.06771E-1,-2.31872E-1
2.05551E-1,-2.31918E-1
2.04406E-1,-2.31933E-1
2.03155E-1,-2.31979E-1
2.01843E-1,-2.31994E-1
2.00653E-1,-2.31964E-1
1.99310E-1,-2.32025E-1
1.97998E-1,-2.32025E-1
1.96685E-1,-2.31964E-1
1.95343E-1,-2.32086E-1
1.94213E-1,-2.31994E-1
1.92825E-1,-2.32147E-1
1.91619E-1,-2.32116E-1
1.90292E-1,-2.32101E-1
1.88949E-1,-2.32193E-1
1.87561E-1,-2.32116E-1
1.86340E-1,-2.32147E-1
1.84921E-1,-2.32208E-1
1.83715E-1,-2.32284E-1
1.82357E-1,-2.32345E-1
1.81060E-1,-2.32299E-1
1.79748E-1,-2.32391E-1
1.78497E-1,-2.32330E-1
1.77246E-1,-2.32391E-1
1.76055E-1,-2.32391E-1
1.74957E-1,-2.32482E-1
1.73797E-1,-2.32467E-1
1.72653E-1,-2.32437E-1
1.71737E-1,-2.32376E-1
1.70608E-1,-2.32406E-1
1.69464E-1,-2.32284E-1
1.68380E-1,-2.32376E-1
1.67343E-1,-2.32284E-1
1.66259E-1,-2.32177E-1
1.65222E-1,-2.31994E-1
1.64154E-1,-2.31887E-1
1.63253E-1,-2.31765E-1
1.62292E-1,-2.31597E-1
1.61285E-1,-2.31353E-1
1.60461E-1,-2.31018E-1
1.59515E-1,-2.30804E-1
1.58721E-1,-2.30453E-1
1.57897E-1,-2.30133E-1
1.57028E-1,-2.29782E-1
1.5625E-1,-2.29431E-1
