CITIFILE A.01.00
#NA VERSION HP8753D.06.12
NAME DATA
VAR FREQ MAG 1601
DATA S[1,1] RI
SEG_LIST_BEGIN
SEG 100000000 200000000 1601
SEG_LIST_END
BEGIN
-5.62408E-1,1.30157E-1
-5.58715E-1,1.38092E-1
-5.56640E-1,1.43035E-1
-5.59021E-1,1.48498E-1
-5.57159E-1,1.51550E-1
-5.56671E-1,1.58264E-1
-5.52948E-1,1.62475E-1
-5.50598E-1,1.64154E-1
-5.46051E-1,1.69067E-1
-5.41656E-1,1.70837E-1
-5.37719E-1,1.73065E-1
-5.33294E-1,1.78283E-1
-5.27069E-1,1.81274E-1
-5.20080E-1,1.87225E-1
-5.13519E-1,1.91925E-1
-5.06225E-1,1.97052E-1
-4.98474E-1,2.04742E-1
-4.91577E-1,2.11090E-1
-4.83612E-1,2.18978E-1
-4.76470E-1,2.27142E-1
-4.71923E-1,2.36328E-1
-4.65271E-1,2.44812E-1
-4.60632E-1,2.53173E-1
-4.55505E-1,2.62939E-1
-4.52484E-1,2.70263E-1
-4.49646E-1,2.79052E-1
-4.48303E-1,2.86422E-1
-4.46044E-1,2.92938E-1
-4.43939E-1,2.99408E-1
-4.431E-1,3.04687E-1
-4.41619E-1,3.09173E-1
-4.38690E-1,3.11035E-1
-4.36828E-1,3.14544E-1
-4.34051E-1,3.15399E-1
-4.29611E-1,3.16452E-1
-4.25033E-1,3.16833E-1
-4.19204E-1,3.16345E-1
-4.11193E-1,3.17627E-1
-4.03411E-1,3.18298E-1
-3.93646E-1,3.18481E-1
-3.84521E-1,3.20251E-1
-3.74572E-1,3.23333E-1
-3.63464E-1,3.25805E-1
-3.51715E-1,3.30719E-1
-3.40362E-1,3.36578E-1
-3.29589E-1,3.42529E-1
-3.19030E-1,3.49731E-1
-3.09845E-1,3.57452E-1
-3.02154E-1,3.65051E-1
-2.94647E-1,3.74176E-1
-2.88330E-1,3.81378E-1
-2.82501E-1,3.90045E-1
-2.79205E-1,3.97888E-1
-2.75726E-1,4.04907E-1
-2.72613E-1,4.10217E-1
-2.70416E-1,4.14123E-1
-2.69012E-1,4.17572E-1
-2.65716E-1,4.19891E-1
-2.64495E-1,4.18762E-1
-2.60864E-1,4.19372E-1
-2.56591E-1,4.17541E-1
-2.51480E-1,4.14611E-1
-2.44110E-1,4.11377E-1
-2.36755E-1,4.08081E-1
-2.26562E-1,4.03808E-1
-2.14996E-1,4.01886E-1
-2.04620E-1,3.99292E-1
-1.92108E-1,3.98925E-1
-1.77581E-1,3.97674E-1
-1.63970E-1,3.99963E-1
-1.49932E-1,4.01519E-1
-1.35955E-1,4.06509E-1
-1.23001E-1,4.11163E-1
-1.10672E-1,4.17205E-1
-9.95178E-2,4.24774E-1
-8.96301E-2,4.32189E-1
-8.19702E-2,4.40918E-1
-7.56835E-2,4.47235E-1
-7.15637E-2,4.55230E-1
-6.77490E-2,4.60052E-1
-6.50329E-2,4.66064E-1
-6.34155E-2,4.69055E-1
-6.38122E-2,4.71252E-1
-6.28662E-2,4.72106E-1
-6.15387E-2,4.68597E-1
-6.10656E-2,4.65362E-1
-5.87463E-2,4.60388E-1
-5.47180E-2,4.54071E-1
-5.04150E-2,4.46746E-1
-4.25415E-2,4.38262E-1
-3.40881E-2,4.29473E-1
-2.41699E-2,4.23461E-1
-1.17187E-2,4.15374E-1
0.00946E-1,4.08813E-1
0.15258E-1,4.04739E-1
0.30807E-1,4.00207E-1
0.46264E-1,3.99231E-1
0.61950E-1,3.98712E-1
0.76599E-1,4.00177E-1
0.90911E-1,4.03472E-1
1.03668E-1,4.07043E-1
1.14349E-1,4.13116E-1
1.24633E-1,4.19677E-1
1.32751E-1,4.24774E-1
1.38793E-1,4.32281E-1
1.42303E-1,4.39117E-1
1.43768E-1,4.42199E-1
1.45706E-1,4.45083E-1
1.45080E-1,4.45266E-1
1.44043E-1,4.45953E-1
1.42425E-1,4.43450E-1
1.41052E-1,4.38751E-1
1.39984E-1,4.31030E-1
1.40960E-1,4.23584E-1
1.43402E-1,4.12750E-1
1.47094E-1,4.02923E-1
1.52954E-1,3.91571E-1
1.60705E-1,3.79425E-1
1.70745E-1,3.69766E-1
1.80999E-1,3.59619E-1
1.94183E-1,3.51196E-1
2.06695E-1,3.43261E-1
2.20642E-1,3.38348E-1
2.35504E-1,3.34228E-1
2.49969E-1,3.33496E-1
2.63397E-1,3.33435E-1
2.75604E-1,3.35449E-1
2.85156E-1,3.38348E-1
2.94097E-1,3.43322E-1
2.99835E-1,3.46511E-1
3.03283E-1,3.51715E-1
3.06366E-1,3.54980E-1
3.06930E-1,3.57788E-1
3.05481E-1,3.60046E-1
3.01635E-1,3.59344E-1
2.97637E-1,3.56536E-1
2.94525E-1,3.52844E-1
2.90802E-1,3.44268E-1
2.86163E-1,3.34594E-1
2.84912E-1,3.23638E-1
2.83294E-1,3.12072E-1
2.84408E-1,2.96112E-1
2.88040E-1,2.82424E-1
2.92877E-1,2.67944E-1
3.00247E-1,2.52929E-1
3.10409E-1,2.40188E-1
3.21868E-1,2.27783E-1
3.33831E-1,2.17163E-1
3.47351E-1,2.07855E-1
3.61297E-1,2.00988E-1
3.75152E-1,1.96441E-1
3.88916E-1,1.95068E-1
3.99551E-1,1.94442E-1
4.10644E-1,1.95968E-1
4.19769E-1,1.98669E-1
4.26849E-1,2.02850E-1
4.30694E-1,2.05902E-1
4.32663E-1,2.09823E-1
4.32952E-1,2.12860E-1
4.29992E-1,2.14904E-1
4.26696E-1,2.15362E-1
4.21356E-1,2.13623E-1
4.14947E-1,2.09686E-1
4.09545E-1,2.03064E-1
4.03442E-1,1.95343E-1
3.98696E-1,1.85684E-1
3.95172E-1,1.73217E-1
3.92395E-1,1.59820E-1
3.92822E-1,1.45172E-1
3.95446E-1,1.30020E-1
3.99017E-1,1.16241E-1
4.04663E-1,1.02172E-1
4.13024E-1,0.89935E-1
4.21966E-1,0.78521E-1
4.31182E-1,0.69152E-1
4.42337E-1,0.61904E-1
4.53094E-1,0.56533E-1
4.62219E-1,0.52795E-1
4.71344E-1,0.52002E-1
4.78393E-1,0.51483E-1
4.85168E-1,0.53405E-1
4.88571E-1,0.56198E-1
4.90371E-1,0.59326E-1
4.89685E-1,0.60668E-1
4.88311E-1,0.62255E-1
4.83001E-1,0.62194E-1
4.77264E-1,0.62377E-1
4.70153E-1,0.59173E-1
4.63348E-1,0.54458E-1
4.54513E-1,0.48416E-1
4.47814E-1,0.37933E-1
4.42382E-1,0.28045E-1
4.38171E-1,0.15380E-1
4.3573E-1,0.01281E-1
4.34738E-1,-1.21612E-2
4.36828E-1,-2.67028E-2
4.39941E-1,-3.99169E-2
4.44671E-1,-5.18798E-2
4.5224E-1,-6.25305E-2
4.59213E-1,-7.17163E-2
4.68414E-1,-7.96661E-2
4.77081E-1,-8.36181E-2
4.85290E-1,-8.60900E-2
4.92553E-1,-8.67004E-2
4.98870E-1,-8.45336E-2
5.02929E-1,-8.17260E-2
5.05889E-1,-7.63244E-2
5.04730E-1,-7.05566E-2
5.0177E-1,-6.53381E-2
4.95483E-1,-6.02722E-2
4.86480E-1,-5.71594E-2
4.76806E-1,-5.51452E-2
4.63699E-1,-5.45806E-2
4.51263E-1,-5.84716E-2
4.36401E-1,-6.28662E-2
4.22790E-1,-7.13195E-2
4.10034E-1,-8.25805E-2
3.97338E-1,-9.52758E-2
3.87924E-1,-1.10885E-1
3.80065E-1,-1.27441E-1
3.74847E-1,-1.45278E-1
3.73245E-1,-1.63604E-1
3.73367E-1,-1.79946E-1
3.76785E-1,-1.97784E-1
3.80615E-1,-2.12524E-1
3.88488E-1,-2.26257E-1
3.97094E-1,-2.36908E-1
4.06280E-1,-2.44415E-1
4.14794E-1,-2.49450E-1
4.23797E-1,-2.52624E-1
4.31488E-1,-2.53387E-1
4.37652E-1,-2.53418E-1
4.43359E-1,-2.49298E-1
4.44488E-1,-2.45300E-1
4.43725E-1,-2.38678E-1
4.41757E-1,-2.34375E-1
4.36798E-1,-2.29919E-1
4.29504E-1,-2.26440E-1
4.20349E-1,-2.23724E-1
4.09454E-1,-2.24273E-1
3.98956E-1,-2.26593E-1
3.88305E-1,-2.31262E-1
3.75976E-1,-2.37854E-1
3.66577E-1,-2.47024E-1
3.58184E-1,-2.56713E-1
3.52264E-1,-2.69195E-1
3.48281E-1,-2.80380E-1
3.45703E-1,-2.93670E-1
3.46160E-1,-3.05999E-1
3.48510E-1,-3.16528E-1
3.54431E-1,-3.27117E-1
3.59344E-1,-3.33068E-1
3.66821E-1,-3.38836E-1
3.74176E-1,-3.41217E-1
3.82049E-1,-3.40332E-1
3.87985E-1,-3.37814E-1
3.93554E-1,-3.32580E-1
3.97186E-1,-3.24401E-1
3.96240E-1,-3.16680E-1
3.95431E-1,-3.05587E-1
3.90258E-1,-2.94891E-1
3.82720E-1,-2.84851E-1
3.71307E-1,-2.74658E-1
3.57788E-1,-2.6651E-1
3.41613E-1,-2.60314E-1
3.25256E-1,-2.57110E-1
3.06366E-1,-2.56561E-1
2.87796E-1,-2.59719E-1
2.69424E-1,-2.65121E-1
2.51586E-1,-2.74231E-1
2.37014E-1,-2.85049E-1
2.23373E-1,-2.97943E-1
2.13516E-1,-3.11660E-1
2.04925E-1,-3.26416E-1
2.01965E-1,-3.42407E-1
1.99951E-1,-3.55255E-1
2.0047E-1,-3.67797E-1
2.04742E-1,-3.79730E-1
2.09106E-1,-3.86932E-1
2.15576E-1,-3.92944E-1
2.21710E-1,-3.97354E-1
2.27600E-1,-3.97216E-1
2.33718E-1,-3.93783E-1
2.37915E-1,-3.88855E-1
2.39502E-1,-3.82446E-1
2.39746E-1,-3.73413E-1
2.37213E-1,-3.64685E-1
2.32543E-1,-3.54492E-1
2.25372E-1,-3.44818E-1
2.14325E-1,-3.37646E-1
2.00683E-1,-3.30566E-1
1.86645E-1,-3.25637E-1
1.71875E-1,-3.23379E-1
1.55304E-1,-3.2547E-1
1.39312E-1,-3.28567E-1
1.26052E-1,-3.34472E-1
1.13037E-1,-3.42086E-1
1.01898E-1,-3.52233E-1
0.94207E-1,-3.64929E-1
0.88653E-1,-3.77014E-1
0.86669E-1,-3.88153E-1
0.86425E-1,-3.99169E-1
0.89294E-1,-4.08203E-1
0.94848E-1,-4.17724E-1
1.03057E-1,-4.23492E-1
1.10916E-1,-4.24408E-1
1.20834E-1,-4.23919E-1
1.30279E-1,-4.2099E-1
1.37298E-1,-4.14276E-1
1.4505E-1,-4.04968E-1
1.49108E-1,-3.93707E-1
1.50665E-1,-3.79943E-1
1.50421E-1,-3.65753E-1
1.47583E-1,-3.49639E-1
1.41662E-1,-3.34411E-1
1.31897E-1,-3.19229E-1
1.20101E-1,-3.06961E-1
1.05361E-1,-2.94952E-1
0.89508E-1,-2.85980E-1
0.73181E-1,-2.80502E-1
0.54809E-1,-2.76870E-1
0.37735E-1,-2.76901E-1
0.21682E-1,-2.80609E-1
0.07217E-1,-2.85888E-1
-4.30297E-3,-2.93762E-1
-1.23596E-2,-3.01696E-1
-2.02941E-2,-3.11065E-1
-2.34069E-2,-3.20312E-1
-2.34375E-2,-3.28201E-1
-2.06604E-2,-3.35418E-1
-1.77459E-2,-3.40667E-1
-1.14593E-2,-3.43872E-1
-3.69262E-3,-3.44146E-1
0.02777E-1,-3.42071E-1
0.10589E-1,-3.36731E-1
0.17059E-1,-3.29772E-1
0.21820E-1,-3.19030E-1
0.25421E-1,-3.07678E-1
0.26916E-1,-2.94128E-1
0.26947E-1,-2.80517E-1
0.22628E-1,-2.66571E-1
0.14923E-1,-2.51876E-1
0.07766E-1,-2.38952E-1
-2.92968E-3,-2.27417E-1
-1.61895E-2,-2.19635E-1
-2.96478E-2,-2.12493E-1
-4.26635E-2,-2.09335E-1
-5.70220E-2,-2.07443E-1
-6.99920E-2,-2.09060E-1
-8.03527E-2,-2.12509E-1
-8.85009E-2,-2.19696E-1
-9.48791E-2,-2.26097E-1
-9.87396E-2,-2.33566E-1
-9.89303E-2,-2.41569E-1
-9.75952E-2,-2.49511E-1
-9.22546E-2,-2.56301E-1
-8.42285E-2,-2.60253E-1
-7.60345E-2,-2.63351E-1
-6.56127E-2,-2.62130E-1
-5.41381E-2,-2.60131E-1
-4.36096E-2,-2.54013E-1
-3.20587E-2,-2.47665E-1
-2.15454E-2,-2.36312E-1
-1.37939E-2,-2.23617E-1
-7.78198E-3,-2.10121E-1
-3.99017E-3,-1.92321E-1
-2.49481E-3,-1.76353E-1
-3.47137E-3,-1.60247E-1
-6.53839E-3,-1.42799E-1
-1.27334E-2,-1.29318E-1
-2.08587E-2,-1.15333E-1
-3.04107E-2,-1.04171E-1
-4.13894E-2,-9.56726E-2
-5.26733E-2,-8.92677E-2
-6.18972E-2,-8.52394E-2
-7.21702E-2,-8.41178E-2
-8.01239E-2,-8.61129E-2
-8.57582E-2,-8.79478E-2
-9.00802E-2,-9.08012E-2
-9.11636E-2,-9.52682E-2
-9.16519E-2,-1.00524E-1
-8.78601E-2,-1.03645E-1
-8.37936E-2,-1.06498E-1
-7.66983E-2,-1.06956E-1
-6.84738E-2,-1.06544E-1
-6.19354E-2,-1.02851E-1
-5.26619E-2,-9.87548E-2
-4.46090E-2,-9.10606E-2
-3.67317E-2,-8.27484E-2
-3.13911E-2,-7.08656E-2
-2.72636E-2,-6.01940E-2
-2.71682E-2,-4.71916E-2
-2.69813E-2,-3.61557E-2
-2.95028E-2,-2.29778E-2
-3.47805E-2,-1.21326E-2
-4.09717E-2,-3.94058E-3
-5.01899E-2,0.31681E-2
-5.87692E-2,0.81405E-2
-6.75773E-2,0.88882E-2
-7.64083E-2,0.76141E-2
-8.37097E-2,0.42686E-2
-8.92295E-2,-1.38473E-3
-9.23309E-2,-8.73565E-3
-9.24835E-2,-1.91688E-2
-8.90808E-2,-2.86636E-2
-8.41293E-2,-3.82995E-2
-7.48405E-2,-4.78858E-2
-6.27632E-2,-5.55725E-2
-4.83970E-2,-6.00280E-2
-3.06282E-2,-6.29310E-2
-1.27334E-2,-6.30683E-2
0.65841E-2,-6.03942E-2
2.47383E-2,-5.26466E-2
4.30469E-2,-4.31308E-2
6.02340E-2,-3.00903E-2
7.58247E-2,-1.34658E-2
8.84475E-2,0.49514E-2
9.60235E-2,2.45971E-2
1.02058E-1,4.63180E-2
1.04240E-1,6.83288E-2
1.00746E-1,8.79364E-2
9.53445E-2,1.08223E-1
8.5495E-2,1.24473E-1
0.72914E-1,1.37802E-1
0.59158E-1,1.47872E-1
0.43197E-1,1.53038E-1
0.27931E-1,1.54007E-1
0.12878E-1,1.51145E-1
-7.01904E-4,1.43592E-1
-1.13067E-2,1.33934E-1
-1.76773E-2,1.20452E-1
-2.10418E-2,1.04164E-1
-2.13394E-2,8.78067E-2
-1.70364E-2,7.14569E-2
-9.21249E-3,5.45616E-2
0.34198E-2,4.03823E-2
1.75962E-2,2.73017E-2
3.51142E-2,1.76296E-2
5.53741E-2,1.03111E-2
7.62329E-2,0.81596E-2
9.66148E-2,0.79727E-2
1.18362E-1,1.16424E-2
1.38214E-1,0.20118E-1
1.55632E-1,0.30975E-1
1.70845E-1,0.44578E-1
1.83288E-1,0.59364E-1
1.92520E-1,0.76553E-1
1.95770E-1,0.93666E-1
1.96632E-1,1.10305E-1
1.93534E-1,1.27029E-1
1.88407E-1,1.39495E-1
1.78154E-1,1.49498E-1
1.68281E-1,1.56112E-1
1.56463E-1,1.58752E-1
1.45141E-1,1.58172E-1
1.31881E-1,1.52984E-1
1.22406E-1,1.44775E-1
1.16066E-1,1.33125E-1
1.11572E-1,1.20094E-1
1.11404E-1,1.04156E-1
1.13552E-1,8.77380E-2
1.20742E-1,7.21206E-2
1.29989E-1,0.56617E-1
1.43150E-1,0.41717E-1
1.58493E-1,0.29998E-1
1.77871E-1,0.22094E-1
1.96006E-1,0.15670E-1
2.17598E-1,0.13008E-1
2.39784E-1,0.14915E-1
2.59628E-1,0.20462E-1
2.78259E-1,0.28335E-1
2.95410E-1,0.39138E-1
3.08593E-1,0.54489E-1
3.18771E-1,0.70632E-1
3.26965E-1,0.87524E-1
3.28201E-1,1.04614E-1
3.26660E-1,1.21933E-1
3.20465E-1,1.36444E-1
3.11386E-1,1.50665E-1
3.00293E-1,1.60125E-1
2.87277E-1,1.68151E-1
2.72995E-1,1.71203E-1
2.56942E-1,1.69204E-1
2.41668E-1,1.64276E-1
2.27630E-1,1.56425E-1
2.15217E-1,1.44149E-1
2.06192E-1,1.29646E-1
1.99890E-1,1.12587E-1
1.96258E-1,0.92865E-1
1.97265E-1,0.72998E-1
2.00195E-1,0.56030E-1
2.08389E-1,0.37651E-1
2.18124E-1,0.18936E-1
2.30026E-1,0.04028E-1
2.45101E-1,-8.20922E-3
2.62527E-1,-1.78070E-2
2.79083E-1,-2.59552E-2
2.96386E-1,-3.02124E-2
3.15155E-1,-3.17688E-2
3.31008E-1,-2.87628E-2
3.46694E-1,-2.51922E-2
3.59664E-1,-1.94549E-2
3.70361E-1,-1.18866E-2
3.79669E-1,-1.92260E-3
3.85986E-1,0.07827E-1
3.88427E-1,0.16815E-1
3.90106E-1,0.26336E-1
3.87847E-1,0.35034E-1
3.84216E-1,0.41717E-1
3.78601E-1,0.48065E-1
3.72222E-1,0.50277E-1
3.64608E-1,0.51376E-1
3.57025E-1,0.51025E-1
3.48465E-1,0.47409E-1
3.42208E-1,0.42816E-1
3.35845E-1,0.35064E-1
3.29620E-1,0.26687E-1
3.26461E-1,0.17639E-1
3.25027E-1,0.06134E-1
3.24203E-1,-4.13513E-3
3.25241E-1,-1.55639E-2
3.27560E-1,-2.58483E-2
3.31359E-1,-3.64074E-2
3.35403E-1,-4.57611E-2
3.42315E-1,-5.42907E-2
3.48526E-1,-6.18438E-2
3.55407E-1,-6.86492E-2
3.62960E-1,-7.46307E-2
3.69506E-1,-7.83538E-2
3.76571E-1,-8.20159E-2
3.82904E-1,-8.30841E-2
3.90167E-1,-8.52508E-2
3.94973E-1,-8.65173E-2
3.99734E-1,-8.63952E-2
4.02679E-1,-8.61816E-2
4.06021E-1,-8.64868E-2
4.09103E-1,-8.65631E-2
4.11132E-1,-8.78601E-2
4.11544E-1,-8.71734E-2
4.11071E-1,-8.78143E-2
4.11666E-1,-8.82720E-2
4.11514E-1,-8.89587E-2
4.10690E-1,-9.14154E-2
4.09866E-1,-9.35974E-2
4.08615E-1,-9.66339E-2
4.07043E-1,-9.78851E-2
4.05426E-1,-1.01623E-1
4.04007E-1,-1.05255E-1
4.03488E-1,-1.09817E-1
4.01092E-1,-1.13647E-1
4.01107E-1,-1.18927E-1
4.01107E-1,-1.23840E-1
3.99734E-1,-1.28982E-1
4.00024E-1,-1.34399E-1
4.00955E-1,-1.39953E-1
3.99841E-1,-1.45965E-1
4.01397E-1,-1.51443E-1
4.03060E-1,-1.57653E-1
4.05365E-1,-1.61804E-1
4.05822E-1,-1.66549E-1
4.08859E-1,-1.72226E-1
4.10598E-1,-1.77795E-1
4.13711E-1,-1.79977E-1
4.16549E-1,-1.84921E-1
4.18960E-1,-1.87988E-1
4.21402E-1,-1.92047E-1
4.25155E-1,-1.94717E-1
4.27124E-1,-1.95983E-1
4.28329E-1,-1.96777E-1
4.30114E-1,-1.99401E-1
4.32128E-1,-2.00286E-1
4.32525E-1,-2.00027E-1
4.33273E-1,-2.01721E-1
4.33120E-1,-2.02148E-1
4.32342E-1,-2.03781E-1
4.31518E-1,-2.04269E-1
4.29504E-1,-2.05108E-1
4.27490E-1,-2.07214E-1
4.25994E-1,-2.08847E-1
4.24575E-1,-2.11273E-1
4.21768E-1,-2.14325E-1
4.19357E-1,-2.17315E-1
4.19036E-1,-2.20214E-1
4.16931E-1,-2.23144E-1
4.16015E-1,-2.26806E-1
4.13589E-1,-2.29919E-1
4.13925E-1,-2.33184E-1
4.12551E-1,-2.36511E-1
4.13299E-1,-2.38342E-1
4.11453E-1,-2.41302E-1
4.10507E-1,-2.42187E-1
4.09484E-1,-2.43972E-1
4.08081E-1,-2.45513E-1
4.06127E-1,-2.45788E-1
4.04113E-1,-2.47863E-1
4.01611E-1,-2.47558E-1
3.97369E-1,-2.49450E-1
3.93341E-1,-2.48321E-1
3.89373E-1,-2.51068E-1
3.84643E-1,-2.53891E-1
3.78051E-1,-2.54852E-1
3.72619E-1,-2.58911E-1
3.67431E-1,-2.62420E-1
3.61908E-1,-2.68066E-1
3.56567E-1,-2.74688E-1
3.52172E-1,-2.79327E-1
3.47991E-1,-2.85369E-1
3.45703E-1,-2.93579E-1
3.43231E-1,-3.00201E-1
3.42742E-1,-3.07907E-1
3.40103E-1,-3.13461E-1
3.40637E-1,-3.20968E-1
3.42819E-1,-3.27484E-1
3.44589E-1,-3.31436E-1
3.45962E-1,-3.36105E-1
3.49151E-1,-3.38394E-1
3.51303E-1,-3.4198E-1
3.54461E-1,-3.42529E-1
3.55346E-1,-3.42346E-1
3.55468E-1,-3.41796E-1
3.56140E-1,-3.41522E-1
3.55224E-1,-3.39294E-1
3.53820E-1,-3.37280E-1
3.49060E-1,-3.34686E-1
3.45489E-1,-3.32122E-1
3.39355E-1,-3.30612E-1
3.32763E-1,-3.30383E-1
3.25164E-1,-3.32977E-1
3.16925E-1,-3.33831E-1
3.09722E-1,-3.36639E-1
3.01025E-1,-3.42163E-1
2.93823E-1,-3.46618E-1
2.86407E-1,-3.53973E-1
2.80517E-1,-3.62701E-1
2.74871E-1,-3.71002E-1
2.70462E-1,-3.79531E-1
2.68859E-1,-3.89251E-1
2.67898E-1,-3.97918E-1
2.67547E-1,-4.06555E-1
2.68875E-1,-4.14856E-1
2.72125E-1,-4.20898E-1
2.74597E-1,-4.26940E-1
2.78442E-1,-4.32678E-1
2.81555E-1,-4.35485E-1
2.86132E-1,-4.37011E-1
2.90405E-1,-4.36828E-1
2.92144E-1,-4.36554E-1
2.94372E-1,-4.36248E-1
2.96142E-1,-4.33471E-1
2.96051E-1,-4.29626E-1
2.94250E-1,-4.26940E-1
2.92694E-1,-4.23126E-1
2.87780E-1,-4.19586E-1
2.83630E-1,-4.17968E-1
2.77526E-1,-4.15344E-1
2.70996E-1,-4.14550E-1
2.63977E-1,-4.13696E-1
2.58117E-1,-4.15191E-1
2.52197E-1,-4.16839E-1
2.44278E-1,-4.19540E-1
2.39379E-1,-4.23599E-1
2.34878E-1,-4.25811E-1
2.31796E-1,-4.31884E-1
2.28729E-1,-4.34173E-1
2.25708E-1,-4.38568E-1
2.24304E-1,-4.41894E-1
2.23022E-1,-4.45739E-1
2.23327E-1,-4.47937E-1
2.25219E-1,-4.46655E-1
2.24609E-1,-4.47814E-1
2.23877E-1,-4.46014E-1
2.23526E-1,-4.43969E-1
2.22442E-1,-4.40597E-1
2.19299E-1,-4.36889E-1
2.16278E-1,-4.32556E-1
2.11853E-1,-4.28527E-1
2.05078E-1,-4.24377E-1
1.98303E-1,-4.19250E-1
1.90918E-1,-4.16748E-1
1.81762E-1,-4.14184E-1
1.73950E-1,-4.11438E-1
1.64550E-1,-4.12597E-1
1.52633E-1,-4.13375E-1
1.43585E-1,-4.15802E-1
1.33743E-1,-4.18441E-1
1.26342E-1,-4.22088E-1
1.19644E-1,-4.27642E-1
1.14837E-1,-4.33563E-1
1.07482E-1,-4.38629E-1
1.04309E-1,-4.44763E-1
1.00708E-1,-4.49646E-1
1.00036E-1,-4.54956E-1
0.99975E-1,-4.58862E-1
0.99975E-1,-4.63256E-1
0.99945E-1,-4.64767E-1
1.00891E-1,-4.66598E-1
1.01181E-1,-4.66110E-1
1.00463E-1,-4.64111E-1
1.01944E-1,-4.61547E-1
1.00265E-1,-4.59732E-1
1.00524E-1,-4.55230E-1
0.96496E-1,-4.51477E-1
0.92224E-1,-4.47692E-1
0.87341E-1,-4.43786E-1
0.84594E-1,-4.41894E-1
0.75927E-1,-4.38354E-1
0.68649E-1,-4.37164E-1
0.61920E-1,-4.35424E-1
0.54870E-1,-4.35958E-1
0.48065E-1,-4.35501E-1
0.41275E-1,-4.40246E-1
0.34439E-1,-4.40490E-1
0.29724E-1,-4.43206E-1
0.26245E-1,-4.48730E-1
0.23010E-1,-4.51843E-1
0.20752E-1,-4.56420E-1
0.19226E-1,-4.59716E-1
0.21911E-1,-4.60571E-1
0.21545E-1,-4.62936E-1
0.22705E-1,-4.64691E-1
0.24398E-1,-4.63623E-1
0.26321E-1,-4.62326E-1
0.28472E-1,-4.58313E-1
0.30242E-1,-4.55352E-1
0.30029E-1,-4.48791E-1
0.30090E-1,-4.44946E-1
0.29113E-1,-4.37866E-1
0.24475E-1,-4.29687E-1
0.21301E-1,-4.24621E-1
0.16632E-1,-4.16870E-1
0.112E-1,-4.11087E-1
0.04074E-1,-4.06265E-1
-2.60925E-3,-4.00207E-1
-1.0849E-2,-3.96102E-1
-1.87377E-2,-3.94851E-1
-2.71606E-2,-3.92532E-1
-3.58276E-2,-3.91067E-1
-4.43725E-2,-3.91418E-1
-4.88281E-2,-3.93371E-1
-5.69458E-2,-3.93432E-1
-6.02722E-2,-3.94317E-1
-6.43310E-2,-3.96118E-1
-6.68335E-2,-3.99139E-1
-7.15026E-2,-3.99215E-1
-7.39288E-2,-4.00146E-1
-7.59582E-2,-4.00528E-1
-7.59887E-2,-3.98391E-1
-7.64312E-2,-3.96896E-1
-7.87963E-2,-3.93524E-1
-7.96508E-2,-3.91357E-1
-8.10546E-2,-3.86413E-1
-8.43505E-2,-3.83483E-1
-8.70666E-2,-3.77777E-1
-9.15832E-2,-3.73443E-1
-9.62829E-2,-3.70300E-1
-1.02966E-1,-3.64364E-1
-1.07986E-1,-3.61862E-1
-1.14883E-1,-3.60092E-1
-1.20254E-1,-3.57070E-1
-1.25824E-1,-3.56552E-1
-1.31958E-1,-3.55697E-1
-1.362E-1,-3.54858E-1
-1.41418E-1,-3.57543E-1
-1.44592E-1,-3.58093E-1
-1.48498E-1,-3.58367E-1
-1.49475E-1,-3.59802E-1
-1.48040E-1,-3.60534E-1
-1.49871E-1,-3.60839E-1
-1.46896E-1,-3.60626E-1
-1.46041E-1,-3.57955E-1
-1.43066E-1,-3.53912E-1
-1.41189E-1,-3.50311E-1
-1.39572E-1,-3.45459E-1
-1.37329E-1,-3.38439E-1
-1.35406E-1,-3.32946E-1
-1.35223E-1,-3.23547E-1
-1.36901E-1,-3.14025E-1
-1.37878E-1,-3.04901E-1
-1.41449E-1,-2.96051E-1
-1.44256E-1,-2.87124E-1
-1.50009E-1,-2.77542E-1
-1.55365E-1,-2.69119E-1
-1.63970E-1,-2.62680E-1
-1.69860E-1,-2.55584E-1
-1.78543E-1,-2.50885E-1
-1.8573E-1,-2.46475E-1
-1.93115E-1,-2.44415E-1
-2.00408E-1,-2.41973E-1
-2.06359E-1,-2.42736E-1
-2.11547E-1,-2.42614E-1
-2.14294E-1,-2.41973E-1
-2.17109E-1,-2.42775E-1
-2.17651E-1,-2.43118E-1
-2.17498E-1,-2.44445E-1
-2.17361E-1,-2.43408E-1
-2.15179E-1,-2.42202E-1
-2.13470E-1,-2.40325E-1
-2.09655E-1,-2.37228E-1
-2.06756E-1,-2.32788E-1
-2.05108E-1,-2.25585E-1
-2.01080E-1,-2.19177E-1
-2.00073E-1,-2.12646E-1
-1.99310E-1,-2.04986E-1
-1.99142E-1,-1.95892E-1
-1.99668E-1,-1.87988E-1
-2.02995E-1,-1.79763E-1
-2.04841E-1,-1.71814E-1
-2.08557E-1,-1.63711E-1
-2.1492E-1,-1.57470E-1
-2.18689E-1,-1.52206E-1
-2.22747E-1,-1.47796E-1
-2.27905E-1,-1.44592E-1
-2.31674E-1,-1.42044E-1
-2.35183E-1,-1.39205E-1
-2.37976E-1,-1.37725E-1
-2.39112E-1,-1.38366E-1
-2.40501E-1,-1.36474E-1
-2.39082E-1,-1.38443E-1
-2.36190E-1,-1.37588E-1
-2.33596E-1,-1.35772E-1
-2.29492E-1,-1.35559E-1
-2.24838E-1,-1.31729E-1
-2.18627E-1,-1.27426E-1
-2.14080E-1,-1.22207E-1
-2.08969E-1,-1.15646E-1
-2.03994E-1,-1.06948E-1
-2.00897E-1,-9.90905E-2
-1.98013E-1,-8.83331E-2
