CITIFILE A.01.00
#NA VERSION HP8753D.06.12
NAME DATA
VAR FREQ MAG 1601
DATA S[1,1] RI
SEG_LIST_BEGIN
SEG 100000000 200000000 1601
SEG_LIST_END
BEGIN
-6.33163E-2,-1.09901E-1
-6.53762E-2,-1.12937E-1
-6.77185E-2,-1.16226E-1
-7.01904E-2,-1.19735E-1
-7.22732E-2,-1.23001E-1
-7.55233E-2,-1.26197E-1
-7.82470E-2,-1.28974E-1
-8.12759E-2,-1.31950E-1
-8.47930E-2,-1.34811E-1
-8.79135E-2,-1.37596E-1
-9.15374E-2,-1.40144E-1
-9.52911E-2,-1.42845E-1
-9.85107E-2,-1.45378E-1
-1.02508E-1,-1.47560E-1
-1.06323E-1,-1.49780E-1
-1.10458E-1,-1.52092E-1
-1.13906E-1,-1.53862E-1
-1.18179E-1,-1.55616E-1
-1.22489E-1,-1.57714E-1
-1.26411E-1,-1.59538E-1
-1.30332E-1,-1.60972E-1
-1.34704E-1,-1.62765E-1
-1.38999E-1,-1.64154E-1
-1.43165E-1,-1.65367E-1
-1.47644E-1,-1.66679E-1
-1.51802E-1,-1.67678E-1
-1.56082E-1,-1.68632E-1
-1.60331E-1,-1.69776E-1
-1.64299E-1,-1.70639E-1
-1.68693E-1,-1.71012E-1
-1.73217E-1,-1.71752E-1
-1.77276E-1,-1.72576E-1
-1.81274E-1,-1.72576E-1
-1.85424E-1,-1.73294E-1
-1.89285E-1,-1.73065E-1
-1.93069E-1,-1.73049E-1
-1.97189E-1,-1.72958E-1
-2.01095E-1,-1.72721E-1
-2.04582E-1,-1.72515E-1
-2.08335E-1,-1.71951E-1
-2.12028E-1,-1.71417E-1
-2.15545E-1,-1.70417E-1
-2.18963E-1,-1.69998E-1
-2.22190E-1,-1.68991E-1
-2.25738E-1,-1.67915E-1
-2.28805E-1,-1.66626E-1
-2.32002E-1,-1.65382E-1
-2.35099E-1,-1.64062E-1
-2.3806E-1,-1.62521E-1
-2.40966E-1,-1.60888E-1
-2.43560E-1,-1.59256E-1
-2.46322E-1,-1.57196E-1
-2.48611E-1,-1.55212E-1
-2.51129E-1,-1.52938E-1
-2.53555E-1,-1.50741E-1
-2.55935E-1,-1.48345E-1
-2.57812E-1,-1.45904E-1
-2.59918E-1,-1.43219E-1
-2.61932E-1,-1.40441E-1
-2.63946E-1,-1.37481E-1
-2.65899E-1,-1.34704E-1
-2.67334E-1,-1.31637E-1
-2.68997E-1,-1.28189E-1
-2.70462E-1,-1.25030E-1
-2.71743E-1,-1.21368E-1
-2.73239E-1,-1.17981E-1
-2.74353E-1,-1.14471E-1
-2.75161E-1,-1.10397E-1
-2.76306E-1,-1.06506E-1
-2.77343E-1,-1.02417E-1
-2.77740E-1,-9.84191E-2
-2.78396E-1,-9.42993E-2
-2.79342E-1,-9.02557E-2
-2.79586E-1,-8.54492E-2
-2.80120E-1,-8.11309E-2
-2.80487E-1,-7.66449E-2
-2.80517E-1,-7.18231E-2
-2.80914E-1,-6.73217E-2
-2.80792E-1,-6.24389E-2
-2.80868E-1,-5.73883E-2
-2.81066E-1,-5.23681E-2
-2.80807E-1,-4.78210E-2
-2.80578E-1,-4.24194E-2
-2.80395E-1,-3.71551E-2
-2.79937E-1,-3.23181E-2
-2.79785E-1,-2.70996E-2
-2.79220E-1,-2.18658E-2
-2.78686E-1,-1.64337E-2
-2.78320E-1,-1.10473E-2
-2.77206E-1,-5.78308E-3
-2.76672E-1,-3.66210E-4
-2.76153E-1,0.05050E-1
-2.75161E-1,0.10437E-1
-2.74124E-1,0.15731E-1
-2.73513E-1,0.21408E-1
-2.72277E-1,0.26657E-1
-2.71347E-1,0.32180E-1
-2.70263E-1,0.37445E-1
-2.68997E-1,0.42907E-1
-2.67517E-1,0.48339E-1
-2.66494E-1,0.53619E-1
-2.64984E-1,0.59066E-1
-2.63504E-1,0.64102E-1
-2.62176E-1,0.69641E-1
-2.60665E-1,0.74691E-1
-2.58956E-1,0.79757E-1
-2.57583E-1,0.84884E-1
-2.55844E-1,0.89447E-1
-2.53967E-1,0.95062E-1
-2.52426E-1,0.99762E-1
-2.50442E-1,1.04507E-1
-2.48489E-1,1.09298E-1
-2.4646E-1,1.14151E-1
-2.44384E-1,1.18713E-1
-2.42385E-1,1.23458E-1
-2.40081E-1,1.27777E-1
-2.37663E-1,1.32209E-1
-2.35076E-1,1.36634E-1
-2.32711E-1,1.41021E-1
-2.30255E-1,1.44844E-1
-2.27653E-1,1.49353E-1
-2.24868E-1,1.53282E-1
-2.22137E-1,1.56944E-1
-2.19200E-1,1.60766E-1
-2.16201E-1,1.64703E-1
-2.13287E-1,1.68548E-1
-2.10189E-1,1.72424E-1
-2.06741E-1,1.75720E-1
-2.03170E-1,1.79260E-1
-1.99493E-1,1.82678E-1
-1.96106E-1,1.85836E-1
-1.92306E-1,1.89514E-1
-1.88461E-1,1.92611E-1
-1.84494E-1,1.95602E-1
-1.80419E-1,1.98776E-1
-1.76315E-1,2.01568E-1
-1.72393E-1,2.05139E-1
-1.67724E-1,2.07580E-1
-1.63452E-1,2.10784E-1
-1.59278E-1,2.13409E-1
-1.54403E-1,2.16079E-1
-1.50230E-1,2.18864E-1
-1.45195E-1,2.21786E-1
-1.40762E-1,2.24037E-1
-1.35986E-1,2.26974E-1
-1.30989E-1,2.29835E-1
-1.25938E-1,2.32292E-1
-1.20964E-1,2.34848E-1
-1.16210E-1,2.37251E-1
-1.10824E-1,2.39700E-1
-1.06193E-1,2.42088E-1
-1.00853E-1,2.44888E-1
-9.54818E-2,2.47245E-1
-9.03091E-2,2.49488E-1
-8.48236E-2,2.52044E-1
-7.95288E-2,2.54272E-1
-7.42797E-2,2.56973E-1
-6.91070E-2,2.59124E-1
-6.36596E-2,2.61596E-1
-5.82885E-2,2.63946E-1
-5.28869E-2,2.66235E-1
-4.74853E-2,2.67837E-1
-4.20684E-2,2.70370E-1
-3.68804E-2,2.72476E-1
-3.15856E-2,2.74353E-1
-2.63214E-2,2.76397E-1
-2.10418E-2,2.78411E-1
-1.60064E-2,2.80242E-1
-1.10473E-2,2.82104E-1
-5.96618E-3,2.83432E-1
-6.56127E-4,2.85446E-1
0.04119E-1,2.87200E-1
0.09384E-1,2.88757E-1
0.14389E-1,2.90313E-1
0.19470E-1,2.91687E-1
0.24169E-1,2.92572E-1
0.28869E-1,2.93563E-1
0.33447E-1,2.94906E-1
0.38436E-1,2.96127E-1
0.43258E-1,2.96936E-1
0.47683E-1,2.97699E-1
0.52764E-1,2.98294E-1
0.56854E-1,2.98996E-1
0.61630E-1,2.99301E-1
0.66101E-1,2.99682E-1
0.70770E-1,2.99743E-1
0.75012E-1,3.00201E-1
0.80108E-1,3.00262E-1
0.84442E-1,3.00109E-1
0.89050E-1,2.99682E-1
0.93719E-1,2.99011E-1
0.98144E-1,2.98492E-1
1.02722E-1,2.98156E-1
1.07086E-1,2.97027E-1
1.11755E-1,2.96691E-1
1.16363E-1,2.95288E-1
1.20864E-1,2.94189E-1
1.25305E-1,2.93121E-1
1.30294E-1,2.91839E-1
1.34735E-1,2.90695E-1
1.39389E-1,2.88940E-1
1.43951E-1,2.87216E-1
1.48407E-1,2.85629E-1
1.53518E-1,2.83950E-1
1.58172E-1,2.82180E-1
1.63009E-1,2.80090E-1
1.67495E-1,2.78183E-1
1.72302E-1,2.76107E-1
1.77200E-1,2.73727E-1
1.82357E-1,2.71560E-1
1.87088E-1,2.69287E-1
1.92230E-1,2.67089E-1
1.96929E-1,2.64770E-1
2.01965E-1,2.62207E-1
2.07275E-1,2.59765E-1
2.12463E-1,2.57476E-1
2.17468E-1,2.54974E-1
2.23053E-1,2.52136E-1
2.28179E-1,2.49298E-1
2.33398E-1,2.47070E-1
2.38372E-1,2.44293E-1
2.43713E-1,2.41668E-1
2.48840E-1,2.38891E-1
2.54272E-1,2.36053E-1
2.59338E-1,2.33383E-1
2.64328E-1,2.30545E-1
2.69729E-1,2.27966E-1
2.74688E-1,2.25463E-1
2.79739E-1,2.22335E-1
2.84957E-1,2.19604E-1
2.90176E-1,2.16918E-1
2.94937E-1,2.13989E-1
3.00125E-1,2.1138E-1
3.04946E-1,2.08404E-1
3.09707E-1,2.05627E-1
3.14605E-1,2.02606E-1
3.18908E-1,1.99737E-1
3.23425E-1,1.96991E-1
3.28277E-1,1.93817E-1
3.32672E-1,1.90918E-1
3.36914E-1,1.87927E-1
3.40911E-1,1.84783E-1
3.44970E-1,1.81976E-1
3.49365E-1,1.78955E-1
3.53271E-1,1.75659E-1
3.57391E-1,1.72790E-1
3.61175E-1,1.69281E-1
3.64837E-1,1.66259E-1
3.68621E-1,1.62963E-1
3.72345E-1,1.59698E-1
3.75366E-1,1.56402E-1
3.79180E-1,1.52862E-1
3.82537E-1,1.49780E-1
3.85742E-1,1.45965E-1
3.88885E-1,1.42822E-1
3.91754E-1,1.38793E-1
3.94714E-1,1.35314E-1
3.97415E-1,1.31378E-1
4.00238E-1,1.27578E-1
4.03228E-1,1.23977E-1
4.05654E-1,1.20437E-1
4.08432E-1,1.15707E-1
4.10980E-1,1.11999E-1
4.13421E-1,1.07879E-1
4.15649E-1,1.03668E-1
4.17938E-1,0.99456E-1
4.20379E-1,0.95153E-1
4.22546E-1,0.90759E-1
4.2453E-1,0.86059E-1
4.26361E-1,0.81359E-1
4.28405E-1,0.76751E-1
4.30328E-1,0.72021E-1
4.32205E-1,0.67581E-1
4.33654E-1,0.62744E-1
4.35668E-1,0.57556E-1
4.36981E-1,0.52795E-1
4.38751E-1,0.4776E-1
4.40246E-1,0.42663E-1
4.41375E-1,0.37567E-1
4.42962E-1,0.32470E-1
4.44122E-1,0.27343E-1
4.45465E-1,0.22155E-1
4.46685E-1,0.16937E-1
4.47998E-1,0.11566E-1
4.49188E-1,0.06317E-1
4.49951E-1,0.01190E-1
4.51232E-1,-4.15039E-3
4.52041E-1,-9.55200E-3
4.53018E-1,-1.49078E-2
4.53643E-1,-2.02636E-2
4.54528E-1,-2.55432E-2
4.55566E-1,-3.13415E-2
4.56146E-1,-3.67126E-2
4.56359E-1,-4.24194E-2
4.56970E-1,-4.76074E-2
4.57641E-1,-5.31921E-2
4.58252E-1,-5.89599E-2
4.58282E-1,-6.45141E-2
4.58770E-1,-7.03430E-2
4.58984E-1,-7.58667E-2
4.59167E-1,-8.14514E-2
4.59198E-1,-8.73107E-2
4.59411E-1,-9.26818E-2
4.59350E-1,-9.80835E-2
4.59304E-1,-1.03653E-1
4.59045E-1,-1.09344E-1
4.59198E-1,-1.15020E-1
4.59014E-1,-1.20452E-1
4.59014E-1,-1.25915E-1
4.58557E-1,-1.31744E-1
4.58007E-1,-1.37237E-1
4.57397E-1,-1.43066E-1
4.57275E-1,-1.48437E-1
4.56878E-1,-1.53930E-1
4.56115E-1,-1.59240E-1
4.55627E-1,-1.64978E-1
4.55169E-1,-1.70410E-1
4.54437E-1,-1.75964E-1
4.53613E-1,-1.81121E-1
4.52789E-1,-1.86889E-1
4.51995E-1,-1.91741E-1
4.51019E-1,-1.97418E-1
4.50286E-1,-2.02789E-1
4.49188E-1,-2.08038E-1
4.48059E-1,-2.13195E-1
4.46838E-1,-2.18414E-1
4.45831E-1,-2.23388E-1
4.44488E-1,-2.28759E-1
4.43298E-1,-2.33215E-1
4.41680E-1,-2.38555E-1
4.40307E-1,-2.43408E-1
4.38964E-1,-2.48046E-1
4.37377E-1,-2.53051E-1
4.35974E-1,-2.57812E-1
4.34417E-1,-2.62268E-1
4.32922E-1,-2.67242E-1
4.31152E-1,-2.71987E-1
4.29626E-1,-2.76184E-1
4.27703E-1,-2.80639E-1
4.26086E-1,-2.8479E-1
4.23919E-1,-2.89276E-1
4.21752E-1,-2.93640E-1
4.19525E-1,-2.97210E-1
4.17785E-1,-3.01361E-1
4.15191E-1,-3.05633E-1
4.12872E-1,-3.09417E-1
4.10369E-1,-3.13354E-1
4.08203E-1,-3.17077E-1
4.05578E-1,-3.20648E-1
4.02648E-1,-3.24371E-1
3.99963E-1,-3.27728E-1
3.97216E-1,-3.31359E-1
3.94012E-1,-3.34686E-1
3.90960E-1,-3.38012E-1
3.87908E-1,-3.41156E-1
3.84765E-1,-3.44604E-1
3.81378E-1,-3.47808E-1
3.78051E-1,-3.50647E-1
3.74542E-1,-3.54064E-1
3.71154E-1,-3.56811E-1
3.66882E-1,-3.59802E-1
3.63464E-1,-3.62609E-1
3.59680E-1,-3.65387E-1
3.55712E-1,-3.68194E-1
3.51928E-1,-3.71398E-1
3.47869E-1,-3.73611E-1
3.43612E-1,-3.76495E-1
3.39401E-1,-3.78692E-1
3.34945E-1,-3.81698E-1
3.30947E-1,-3.83728E-1
3.26400E-1,-3.86413E-1
3.22113E-1,-3.88946E-1
3.17627E-1,-3.91037E-1
3.13217E-1,-3.93905E-1
3.08471E-1,-3.96011E-1
3.03710E-1,-3.98162E-1
2.99240E-1,-4.00528E-1
2.94296E-1,-4.02587E-1
2.89398E-1,-4.05090E-1
2.84637E-1,-4.07379E-1
2.79769E-1,-4.08859E-1
2.74826E-1,-4.11377E-1
2.7005E-1,-4.13543E-1
2.64709E-1,-4.15496E-1
2.59704E-1,-4.1745E-1
2.54943E-1,-4.19342E-1
2.49603E-1,-4.21356E-1
2.44720E-1,-4.23233E-1
2.39669E-1,-4.24926E-1
2.34497E-1,-4.26727E-1
2.2966E-1,-4.28436E-1
2.24319E-1,-4.30297E-1
2.19329E-1,-4.31808E-1
2.14294E-1,-4.33563E-1
2.09304E-1,-4.34906E-1
2.04193E-1,-4.36355E-1
1.99035E-1,-4.37515E-1
1.94015E-1,-4.38659E-1
1.88766E-1,-4.39956E-1
1.84051E-1,-4.40933E-1
1.79290E-1,-4.42337E-1
1.74392E-1,-4.43298E-1
1.69464E-1,-4.44091E-1
1.64276E-1,-4.45327E-1
1.59652E-1,-4.45785E-1
1.54586E-1,-4.46395E-1
1.49536E-1,-4.47250E-1
1.44836E-1,-4.47799E-1
1.39907E-1,-4.48455E-1
1.34857E-1,-4.48501E-1
1.29974E-1,-4.48913E-1
1.24969E-1,-4.49035E-1
1.20468E-1,-4.49447E-1
1.15341E-1,-4.49249E-1
1.10870E-1,-4.48974E-1
1.05987E-1,-4.48669E-1
1.01196E-1,-4.48730E-1
0.96313E-1,-4.48501E-1
0.91598E-1,-4.47876E-1
0.86776E-1,-4.47204E-1
0.82290E-1,-4.46502E-1
0.76980E-1,-4.45709E-1
0.72860E-1,-4.45190E-1
0.67749E-1,-4.44122E-1
0.63003E-1,-4.42993E-1
0.58380E-1,-4.41848E-1
0.53741E-1,-4.40963E-1
0.49011E-1,-4.39758E-1
0.4422E-1,-4.38186E-1
0.39779E-1,-4.36782E-1
0.35110E-1,-4.35363E-1
0.30517E-1,-4.33792E-1
0.25924E-1,-4.319E-1
0.21408E-1,-4.30160E-1
0.16799E-1,-4.28405E-1
0.12115E-1,-4.26406E-1
0.07827E-1,-4.24285E-1
0.03158E-1,-4.22607E-1
-1.40380E-3,-4.20120E-1
-5.40161E-3,-4.18136E-1
-9.90295E-3,-4.15618E-1
-1.42669E-2,-4.13543E-1
-1.86004E-2,-4.10659E-1
-2.29339E-2,-4.07989E-1
-2.70690E-2,-4.05380E-1
-3.14941E-2,-4.02328E-1
-3.54919E-2,-3.99749E-1
-3.96728E-2,-3.97033E-1
-4.38537E-2,-3.93707E-1
-4.77600E-2,-3.90411E-1
-5.15289E-2,-3.87725E-1
-5.52978E-2,-3.83972E-1
-5.91888E-2,-3.806E-1
-6.24237E-2,-3.77578E-1
-6.65435E-2,-3.73840E-1
-6.95800E-2,-3.70269E-1
-7.32116E-2,-3.66409E-1
-7.65838E-2,-3.62609E-1
-7.99713E-2,-3.58657E-1
-8.28552E-2,-3.54736E-1
-8.64257E-2,-3.50875E-1
-8.95233E-2,-3.46298E-1
-9.21325E-2,-3.42193E-1
-9.50622E-2,-3.37814E-1
-9.78393E-2,-3.33313E-1
-1.00891E-1,-3.28598E-1
-1.03271E-1,-3.24249E-1
-1.06094E-1,-3.19824E-1
-1.08932E-1,-3.14590E-1
-1.11145E-1,-3.09936E-1
-1.13830E-1,-3.04870E-1
-1.16027E-1,-2.99926E-1
-1.18438E-1,-2.94555E-1
-1.20544E-1,-2.89276E-1
-1.23046E-1,-2.83966E-1
-1.24969E-1,-2.78656E-1
-1.27014E-1,-2.73162E-1
-1.29119E-1,-2.68066E-1
-1.30828E-1,-2.62023E-1
-1.32720E-1,-2.56317E-1
-1.34597E-1,-2.50473E-1
-1.36062E-1,-2.44995E-1
-1.38046E-1,-2.39395E-1
-1.39556E-1,-2.33612E-1
-1.41311E-1,-2.27569E-1
-1.42654E-1,-2.21542E-1
-1.44104E-1,-2.15820E-1
-1.45172E-1,-2.09915E-1
-1.46637E-1,-2.03994E-1
-1.48086E-1,-1.98165E-1
-1.49017E-1,-1.92123E-1
-1.50253E-1,-1.86126E-1
-1.51336E-1,-1.80221E-1
-1.52191E-1,-1.74377E-1
-1.52771E-1,-1.68502E-1
-1.53808E-1,-1.62750E-1
-1.54602E-1,-1.56845E-1
-1.54754E-1,-1.51016E-1
-1.55487E-1,-1.45156E-1
-1.55853E-1,-1.39297E-1
-1.55975E-1,-1.33926E-1
-1.56005E-1,-1.28219E-1
-1.56448E-1,-1.22894E-1
-1.56005E-1,-1.17172E-1
-1.56097E-1,-1.11877E-1
-1.55639E-1,-1.06445E-1
-1.55120E-1,-1.01043E-1
-1.54541E-1,-9.58557E-2
-1.53442E-1,-9.10034E-2
-1.52809E-1,-8.57086E-2
-1.51748E-1,-8.07952E-2
-1.50512E-1,-7.59887E-2
-1.49192E-1,-7.11822E-2
-1.47514E-1,-6.64367E-2
-1.45767E-1,-6.16226E-2
-1.43867E-1,-5.69839E-2
-1.41906E-1,-5.24520E-2
-1.39610E-1,-4.79126E-2
-1.37214E-1,-4.35638E-2
-1.34880E-1,-3.89862E-2
-1.32194E-1,-3.45764E-2
-1.28959E-1,-3.04184E-2
-1.26022E-1,-2.60009E-2
-1.22650E-1,-2.22168E-2
-1.19308E-1,-1.77612E-2
-1.15623E-1,-1.37634E-2
-1.11862E-1,-9.67407E-3
-1.07872E-1,-5.64956E-3
-1.03927E-1,-1.65557E-3
-9.98535E-2,0.24108E-2
-9.53826E-2,0.64468E-2
-9.09805E-2,1.00555E-2
-8.61129E-2,1.40838E-2
-8.16383E-2,1.79634E-2
-7.66029E-2,2.18963E-2
-7.15827E-2,2.55355E-2
-6.67800E-2,2.94723E-2
-6.11915E-2,3.35426E-2
-5.61485E-2,3.72123E-2
-5.05676E-2,4.09927E-2
-4.54330E-2,4.46014E-2
-3.97644E-2,4.85725E-2
-3.39050E-2,5.21698E-2
-2.84194E-2,5.57441E-2
-2.28080E-2,5.92460E-2
-1.73721E-2,6.31561E-2
-1.16348E-2,6.67877E-2
-5.85937E-3,6.99920E-2
-2.32696E-4,7.36923E-2
0.58937E-2,7.70645E-2
1.11465E-2,8.04863E-2
1.70288E-2,8.38699E-2
2.27928E-2,8.70628E-2
2.83508E-2,9.05227E-2
3.43589E-2,9.33151E-2
3.96919E-2,9.67445E-2
4.52461E-2,9.93843E-2
5.05676E-2,1.02378E-1
5.63049E-2,1.05018E-1
6.15387E-2,1.07833E-1
6.67343E-2,1.10206E-1
7.20291E-2,1.12670E-1
7.74383E-2,1.14975E-1
8.23211E-2,1.17218E-1
8.75854E-2,1.19110E-1
9.24682E-2,1.20880E-1
9.72747E-2,1.22757E-1
1.02264E-1,1.24374E-1
1.07025E-1,1.25473E-1
1.11923E-1,1.26876E-1
1.16638E-1,1.27792E-1
1.21032E-1,1.28784E-1
1.25671E-1,1.29562E-1
1.29989E-1,1.29837E-1
1.34414E-1,1.30325E-1
1.38855E-1,1.30432E-1
1.42761E-1,1.30630E-1
1.47079E-1,1.30371E-1
1.51367E-1,1.29997E-1
1.55021E-1,1.29615E-1
1.59538E-1,1.28677E-1
1.63703E-1,1.27906E-1
1.67358E-1,1.26960E-1
1.71432E-1,1.25892E-1
1.75437E-1,1.24618E-1
1.79229E-1,1.22970E-1
1.83029E-1,1.21337E-1
1.86965E-1,1.19506E-1
1.90734E-1,1.1763E-1
1.94610E-1,1.15387E-1
1.98471E-1,1.13494E-1
2.02018E-1,1.11282E-1
2.06024E-1,1.08947E-1
2.09976E-1,1.06613E-1
2.13272E-1,1.03729E-1
2.17453E-1,1.01165E-1
2.21435E-1,0.98297E-1
2.25006E-1,0.95977E-1
2.28820E-1,0.93093E-1
2.32696E-1,0.90026E-1
2.36389E-1,0.86822E-1
2.40432E-1,0.83877E-1
2.44171E-1,0.80764E-1
2.47955E-1,0.77560E-1
2.51968E-1,0.74249E-1
2.556E-1,0.70983E-1
2.59582E-1,0.67642E-1
2.63214E-1,0.64285E-1
2.67150E-1,0.60943E-1
2.71163E-1,0.57327E-1
2.74642E-1,0.53833E-1
2.78167E-1,0.50567E-1
2.81982E-1,0.46936E-1
2.85507E-1,0.43502E-1
2.89215E-1,0.39764E-1
2.93045E-1,0.36193E-1
2.96432E-1,0.32623E-1
2.99850E-1,0.28930E-1
3.03405E-1,0.24978E-1
3.06488E-1,0.21240E-1
3.09722E-1,0.17944E-1
3.12805E-1,0.14099E-1
3.15948E-1,0.10162E-1
3.18985E-1,0.06698E-1
3.21868E-1,0.02624E-1
3.24859E-1,-1.28173E-3
3.27423E-1,-4.94384E-3
3.30017E-1,-8.91113E-3
3.32428E-1,-1.26647E-2
3.35067E-1,-1.65557E-2
3.37295E-1,-2.05535E-2
3.39645E-1,-2.44445E-2
3.41827E-1,-2.85339E-2
3.43719E-1,-3.26080E-2
3.45657E-1,-3.64990E-2
3.47610E-1,-4.04357E-2
3.49258E-1,-4.48150E-2
3.50845E-1,-4.87823E-2
3.52340E-1,-5.28869E-2
3.53759E-1,-5.74035E-2
3.54904E-1,-6.13098E-2
3.56170E-1,-6.56280E-2
3.57238E-1,-6.94580E-2
3.58017E-1,-7.39288E-2
3.59222E-1,-7.80487E-2
3.59863E-1,-8.25500E-2
3.60809E-1,-8.65783E-2
3.61145E-1,-9.09118E-2
3.61969E-1,-9.53064E-2
3.62548E-1,-9.96398E-2
3.62915E-1,-1.04064E-1
3.63250E-1,-1.08276E-1
3.63250E-1,-1.12579E-1
3.63403E-1,-1.17065E-1
3.63647E-1,-1.21307E-1
3.63372E-1,-1.25900E-1
3.63250E-1,-1.30371E-1
3.63189E-1,-1.34399E-1
3.63067E-1,-1.39007E-1
3.62701E-1,-1.43310E-1
3.62152E-1,-1.47583E-1
3.61816E-1,-1.52099E-1
3.61434E-1,-1.56601E-1
3.60641E-1,-1.60644E-1
3.59909E-1,-1.65191E-1
3.58917E-1,-1.69326E-1
3.58429E-1,-1.73629E-1
3.57605E-1,-1.78024E-1
3.56674E-1,-1.82220E-1
3.55529E-1,-1.86523E-1
3.54370E-1,-1.90704E-1
3.53210E-1,-1.94946E-1
3.52264E-1,-1.99188E-1
3.50952E-1,-2.03369E-1
3.49639E-1,-2.07428E-1
3.48297E-1,-2.11395E-1
3.46374E-1,-2.15728E-1
3.45031E-1,-2.19726E-1
3.43414E-1,-2.23815E-1
3.41857E-1,-2.27844E-1
3.40087E-1,-2.31842E-1
3.38531E-1,-2.35717E-1
3.36853E-1,-2.39959E-1
3.34869E-1,-2.43621E-1
3.33129E-1,-2.47741E-1
3.31207E-1,-2.51647E-1
3.29193E-1,-2.55645E-1
3.27026E-1,-2.59628E-1
3.24890E-1,-2.63580E-1
3.22998E-1,-2.67425E-1
3.20587E-1,-2.70904E-1
3.18450E-1,-2.74871E-1
3.16101E-1,-2.78961E-1
3.13812E-1,-2.82959E-1
3.11370E-1,-2.86575E-1
3.08990E-1,-2.90405E-1
3.06594E-1,-2.93930E-1
3.04184E-1,-2.98126E-1
3.01818E-1,-3.01788E-1
2.99163E-1,-3.05511E-1
2.96539E-1,-3.09051E-1
2.94189E-1,-3.12439E-1
2.91503E-1,-3.16131E-1
2.88635E-1,-3.19671E-1
2.86254E-1,-3.23638E-1
2.83660E-1,-3.27087E-1
2.80944E-1,-3.30230E-1
2.77801E-1,-3.33892E-1
2.75482E-1,-3.37493E-1
2.72735E-1,-3.40667E-1
2.70141E-1,-3.43902E-1
2.67272E-1,-3.47015E-1
2.64831E-1,-3.50372E-1
2.62085E-1,-3.53668E-1
2.59491E-1,-3.56689E-1
2.56622E-1,-3.59588E-1
2.53875E-1,-3.62365E-1
2.51586E-1,-3.65264E-1
2.48535E-1,-3.68286E-1
2.45788E-1,-3.70864E-1
2.42767E-1,-3.73657E-1
2.40020E-1,-3.75793E-1
2.3703E-1,-3.78387E-1
2.34359E-1,-3.80905E-1
2.31262E-1,-3.82965E-1
2.28530E-1,-3.85345E-1
2.25463E-1,-3.87283E-1
2.22625E-1,-3.89373E-1
2.19207E-1,-3.91449E-1
2.16278E-1,-3.93158E-1
2.13165E-1,-3.94714E-1
2.09899E-1,-3.96545E-1
2.06817E-1,-3.97857E-1
2.03125E-1,-3.99444E-1
1.99829E-1,-4.00817E-1
1.96228E-1,-4.01886E-1
1.93176E-1,-4.02984E-1
1.89544E-1,-4.04327E-1
1.86065E-1,-4.05517E-1
1.82647E-1,-4.06524E-1
1.78833E-1,-4.07074E-1
1.74652E-1,-4.07959E-1
1.71051E-1,-4.08447E-1
1.67053E-1,-4.09362E-1
1.63085E-1,-4.09881E-1
1.59179E-1,-4.10308E-1
1.55151E-1,-4.10705E-1
1.51245E-1,-4.11193E-1
1.46881E-1,-4.11682E-1
1.42517E-1,-4.11987E-1
1.38336E-1,-4.12353E-1
1.33804E-1,-4.12628E-1
1.29318E-1,-4.12979E-1
1.25137E-1,-4.13192E-1
1.21139E-1,-4.13040E-1
1.16241E-1,-4.13589E-1
1.11389E-1,-4.13452E-1
1.06872E-1,-4.13299E-1
1.02111E-1,-4.13726E-1
0.97442E-1,-4.13757E-1
0.92804E-1,-4.13665E-1
0.88378E-1,-4.13726E-1
0.83374E-1,-4.13543E-1
0.78460E-1,-4.13726E-1
0.74401E-1,-4.13574E-1
0.69366E-1,-4.13970E-1
0.64788E-1,-4.13482E-1
0.59814E-1,-4.13391E-1
0.55328E-1,-4.13482E-1
0.50689E-1,-4.12933E-1
0.46081E-1,-4.13055E-1
0.41564E-1,-4.12780E-1
0.37078E-1,-4.12689E-1
0.32714E-1,-4.12139E-1
0.28381E-1,-4.12200E-1
0.24047E-1,-4.11590E-1
0.19683E-1,-4.11010E-1
0.15625E-1,-4.11010E-1
0.11291E-1,-4.10217E-1
0.07202E-1,-4.09332E-1
0.03295E-1,-4.08859E-1
-5.64575E-4,-4.0802E-1
-4.40979E-3,-4.07424E-1
-8.30078E-3,-4.06478E-1
-1.20391E-2,-4.05929E-1
-1.55944E-2,-4.04449E-1
-1.98364E-2,-4.03442E-1
-2.34069E-2,-4.02221E-1
-2.68554E-2,-4.00329E-1
-3.02124E-2,-3.98986E-1
-3.40881E-2,-3.97796E-1
-3.76281E-2,-3.96179E-1
-4.07104E-2,-3.94592E-1
-4.47082E-2,-3.92517E-1
-4.82482E-2,-3.90258E-1
-5.10253E-2,-3.88427E-1
-5.44128E-2,-3.86505E-1
-5.80749E-2,-3.84063E-1
-6.11877E-2,-3.81561E-1
-6.46057E-2,-3.79058E-1
-6.77490E-2,-3.76647E-1
-7.10754E-2,-3.73504E-1
-7.48901E-2,-3.70788E-1
-7.76062E-2,-3.67492E-1
-8.13293E-2,-3.64685E-1
-8.45184E-2,-3.61663E-1
-8.77533E-2,-3.58398E-1
-9.09118E-2,-3.55026E-1
-9.46655E-2,-3.51257E-1
-9.82513E-2,-3.47808E-1
-1.01486E-1,-3.44482E-1
-1.04904E-1,-3.40988E-1
-1.08459E-1,-3.36959E-1
-1.12075E-1,-3.33450E-1
-1.15631E-1,-3.29406E-1
-1.19064E-1,-3.25592E-1
-1.22345E-1,-3.21502E-1
-1.25793E-1,-3.17993E-1
-1.29867E-1,-3.13720E-1
-1.33499E-1,-3.09921E-1
-1.36962E-1,-3.05908E-1
-1.40564E-1,-3.01818E-1
-1.44165E-1,-2.9776E-1
-1.48071E-1,-2.93609E-1
-1.51611E-1,-2.89672E-1
-1.55181E-1,-2.85461E-1
