CITIFILE A.01.00
#NA VERSION HP8753D.06.12
NAME DATA
VAR FREQ MAG 1601
DATA S[1,1] RI
SEG_LIST_BEGIN
SEG 100000000 200000000 1601
SEG_LIST_END
BEGIN
-3.38623E-1,1.15768E-1
-3.35388E-1,1.17919E-1
-3.32229E-1,1.19781E-1
-3.27957E-1,1.21398E-1
-3.25378E-1,1.22894E-1
-3.21807E-1,1.24481E-1
-3.18252E-1,1.26022E-1
-3.14483E-1,1.27121E-1
-3.11004E-1,1.29241E-1
-3.07296E-1,1.30096E-1
-3.04489E-1,1.32476E-1
-3.00186E-1,1.33682E-1
-2.96691E-1,1.35376E-1
-2.93243E-1,1.36230E-1
-2.88848E-1,1.3797E-1
-2.85919E-1,1.38992E-1
-2.81951E-1,1.40365E-1
-2.79190E-1,1.41738E-1
-2.75207E-1,1.42730E-1
-2.71667E-1,1.43814E-1
-2.67578E-1,1.44439E-1
-2.64328E-1,1.45874E-1
-2.60376E-1,1.47125E-1
-2.57064E-1,1.48101E-1
-2.53463E-1,1.4888E-1
-2.49527E-1,1.50207E-1
-2.46353E-1,1.50955E-1
-2.42813E-1,1.51794E-1
-2.39120E-1,1.53121E-1
-2.35351E-1,1.53793E-1
-2.32116E-1,1.54068E-1
-2.28408E-1,1.55029E-1
-2.25067E-1,1.5625E-1
-2.20703E-1,1.56570E-1
-2.17636E-1,1.57470E-1
-2.14187E-1,1.57974E-1
-2.10449E-1,1.59347E-1
-2.07122E-1,1.59027E-1
-2.03170E-1,1.60095E-1
-2.00073E-1,1.60232E-1
-1.96716E-1,1.61163E-1
-1.92596E-1,1.61682E-1
-1.88858E-1,1.62124E-1
-1.85699E-1,1.62307E-1
-1.82388E-1,1.62948E-1
-1.78802E-1,1.63436E-1
-1.74972E-1,1.63131E-1
-1.71646E-1,1.63375E-1
-1.68701E-1,1.64108E-1
-1.65176E-1,1.64245E-1
-1.61483E-1,1.64199E-1
-1.58493E-1,1.64474E-1
-1.54892E-1,1.64611E-1
-1.51245E-1,1.65054E-1
-1.47720E-1,1.65267E-1
-1.44653E-1,1.64825E-1
-1.41235E-1,1.64947E-1
-1.37786E-1,1.65267E-1
-1.34903E-1,1.65329E-1
-1.31301E-1,1.65603E-1
-1.28036E-1,1.65069E-1
-1.24816E-1,1.65435E-1
-1.21658E-1,1.65130E-1
-1.18286E-1,1.64962E-1
-1.14334E-1,1.64856E-1
-1.11434E-1,1.65161E-1
-1.07772E-1,1.65191E-1
-1.04309E-1,1.65100E-1
-1.01913E-1,1.64962E-1
-9.8526E-2,1.64733E-1
-9.55352E-2,1.64047E-1
-9.19952E-2,1.64444E-1
-8.94165E-2,1.63925E-1
-8.59527E-2,1.63528E-1
-8.28247E-2,1.63421E-1
-8.00933E-2,1.62323E-1
-7.66449E-2,1.62277E-1
-7.28912E-2,1.61911E-1
-7.05261E-2,1.61941E-1
-6.70013E-2,1.61071E-1
-6.40869E-2,1.61209E-1
-6.12640E-2,1.60919E-1
-5.76934E-2,1.5979E-1
-5.52520E-2,1.59378E-1
-5.23376E-2,1.58615E-1
-4.89044E-2,1.58813E-1
-4.62341E-2,1.57852E-1
-4.29992E-2,1.56936E-1
-4.07638E-2,1.56562E-1
-3.74755E-2,1.56440E-1
-3.44848E-2,1.56105E-1
-3.17230E-2,1.54846E-1
-2.89535E-2,1.54495E-1
-2.55508E-2,1.53541E-1
-2.28118E-2,1.52984E-1
-2.06604E-2,1.52221E-1
-1.71966E-2,1.51641E-1
-1.47018E-2,1.51084E-1
-1.18560E-2,1.50550E-1
-9.39941E-3,1.50169E-1
-6.21032E-3,1.48948E-1
-3.98254E-3,1.48483E-1
-7.55310E-4,1.47659E-1
0.01899E-1,1.46820E-1
0.04089E-1,1.46637E-1
0.07041E-1,1.45584E-1
0.09376E-1,1.44302E-1
0.12550E-1,1.44050E-1
0.14091E-1,1.42662E-1
0.17341E-1,1.42257E-1
0.20057E-1,1.41365E-1
0.22354E-1,1.41037E-1
0.24787E-1,1.40052E-1
0.26931E-1,1.38916E-1
0.30166E-1,1.38282E-1
0.31761E-1,1.37016E-1
0.34561E-1,1.36711E-1
0.37468E-1,1.34971E-1
0.39245E-1,1.34872E-1
0.42221E-1,1.33667E-1
0.44410E-1,1.32820E-1
0.46737E-1,1.3134E-1
0.48675E-1,1.31401E-1
0.51399E-1,1.30294E-1
0.53596E-1,1.28898E-1
0.55732E-1,1.27639E-1
0.57876E-1,1.26571E-1
0.60318E-1,1.25694E-1
0.62576E-1,1.25312E-1
6.44950E-2,1.23596E-1
6.68754E-2,1.23485E-1
6.89621E-2,1.22165E-1
7.12585E-2,1.20788E-1
7.35740E-2,1.19697E-1
7.51876E-2,1.19064E-1
7.77740E-2,1.17973E-1
8.01086E-2,1.16500E-1
8.16421E-2,1.15619E-1
8.34159E-2,1.14738E-1
8.56361E-2,1.13758E-1
8.80699E-2,1.1269E-1
8.99238E-2,1.11995E-1
9.14955E-2,1.10389E-1
9.35096E-2,1.09432E-1
9.56955E-2,1.08482E-1
9.70764E-2,1.06872E-1
9.93042E-2,1.06941E-1
1.01318E-1,1.05247E-1
1.02760E-1,1.04713E-1
1.04805E-1,1.03393E-1
1.06521E-1,1.01783E-1
1.08215E-1,1.00891E-1
1.10557E-1,9.93728E-2
1.12175E-1,9.84039E-2
1.13327E-1,9.75723E-2
1.15165E-1,9.65957E-2
1.17263E-1,9.52987E-2
1.18850E-1,9.41009E-2
1.20544E-1,9.36279E-2
1.22207E-1,9.18579E-2
1.23657E-1,9.06677E-2
1.25274E-1,0.89538E-1
1.27090E-1,0.88317E-1
1.28448E-1,0.87326E-1
1.30279E-1,0.86105E-1
1.31713E-1,0.84991E-1
1.33178E-1,0.83923E-1
1.35101E-1,0.82733E-1
1.36367E-1,0.81329E-1
1.38107E-1,0.80261E-1
1.39099E-1,0.79238E-1
1.40533E-1,0.78231E-1
1.42318E-1,0.76843E-1
1.43585E-1,0.75973E-1
1.44989E-1,0.74462E-1
1.46209E-1,0.73654E-1
1.47827E-1,0.72479E-1
1.49078E-1,0.71136E-1
1.50314E-1,0.70007E-1
1.51840E-1,0.69015E-1
1.52832E-1,0.67588E-1
1.54342E-1,0.66627E-1
1.55632E-1,0.65811E-1
1.56852E-1,0.64346E-1
1.57653E-1,0.63003E-1
1.59225E-1,0.62126E-1
1.60263E-1,0.60546E-1
1.61277E-1,0.59471E-1
1.62651E-1,0.58532E-1
1.63948E-1,0.56999E-1
1.64787E-1,0.56106E-1
1.66343E-1,0.54573E-1
1.67289E-1,0.53878E-1
1.68670E-1,0.52749E-1
1.69555E-1,0.51544E-1
1.70242E-1,0.50109E-1
1.71379E-1,0.48828E-1
1.72180E-1,0.47645E-1
1.73065E-1,0.47027E-1
1.74751E-1,0.45745E-1
1.75231E-1,0.44349E-1
1.76422E-1,0.43396E-1
1.77307E-1,0.42137E-1
1.78398E-1,0.40985E-1
1.79031E-1,0.39825E-1
1.80038E-1,0.38589E-1
1.81037E-1,0.37529E-1
1.81701E-1,0.36247E-1
1.82571E-1,0.34957E-1
1.83738E-1,0.33775E-1
1.84410E-1,0.32623E-1
1.84837E-1,0.31539E-1
1.85958E-1,0.30288E-1
1.87019E-1,0.28968E-1
1.87767E-1,0.28282E-1
1.88362E-1,0.26657E-1
1.89048E-1,0.26062E-1
1.89575E-1,0.24559E-1
1.90315E-1,0.23368E-1
1.91017E-1,0.22491E-1
1.91719E-1,0.21415E-1
1.92672E-1,0.20385E-1
1.92695E-1,0.19111E-1
1.93901E-1,0.18249E-1
1.94534E-1,0.16922E-1
1.95037E-1,0.15609E-1
1.95968E-1,0.14267E-1
1.96510E-1,0.13015E-1
1.97227E-1,0.12298E-1
1.97570E-1,0.10826E-1
1.98112E-1,0.09857E-1
1.98715E-1,0.08796E-1
1.99432E-1,0.07255E-1
2.00286E-1,0.06500E-1
2.0047E-1,0.05249E-1
2.01072E-1,0.04188E-1
2.0121E-1,0.02853E-1
2.02156E-1,0.02174E-1
2.02194E-1,0.00694E-1
2.02606E-1,-2.05993E-4
2.03262E-1,-1.12152E-3
2.03880E-1,-2.63977E-3
2.04208E-1,-3.80706E-3
2.04429E-1,-4.93621E-3
2.04856E-1,-5.86700E-3
2.05268E-1,-6.79779E-3
2.05902E-1,-8.23974E-3
2.06214E-1,-9.10949E-3
2.06375E-1,-1.00021E-2
2.07206E-1,-1.15966E-2
2.07412E-1,-1.24130E-2
2.07458E-1,-1.41296E-2
2.08175E-1,-1.50909E-2
2.08206E-1,-1.58233E-2
2.08221E-1,-1.71051E-2
2.08908E-1,-1.81732E-2
2.09365E-1,-1.92871E-2
2.09396E-1,-2.04620E-2
2.09426E-1,-2.16369E-2
2.09594E-1,-2.26135E-2
2.10220E-1,-2.37426E-2
2.10601E-1,-2.46582E-2
2.10739E-1,-2.57415E-2
2.10830E-1,-2.72064E-2
2.10830E-1,-2.80456E-2
2.11044E-1,-2.87323E-2
2.11624E-1,-3.01971E-2
2.11624E-1,-3.08532E-2
2.12158E-1,-3.25317E-2
2.11975E-1,-3.32946E-2
2.12142E-1,-3.45916E-2
2.12326E-1,-3.57055E-2
2.12173E-1,-3.64227E-2
2.12417E-1,-3.77044E-2
2.12921E-1,-3.85131E-2
2.12432E-1,-4.00390E-2
2.12951E-1,-4.10308E-2
2.13043E-1,-4.21447E-2
2.12554E-1,-4.30145E-2
2.13104E-1,-4.40216E-2
2.13226E-1,-4.47235E-2
2.13378E-1,-4.58984E-2
2.13439E-1,-4.73327E-2
2.13439E-1,-4.82635E-2
2.13028E-1,-4.91638E-2
2.13501E-1,-5.00335E-2
2.13562E-1,-5.15899E-2
2.13424E-1,-5.27114E-2
2.13798E-1,-5.37796E-2
2.13356E-1,-5.43823E-2
2.13417E-1,-5.54504E-2
2.13569E-1,-5.68161E-2
2.13707E-1,-5.77087E-2
2.13455E-1,-5.87234E-2
2.13684E-1,-5.96237E-2
2.13523E-1,-6.08062E-2
2.13546E-1,-6.18362E-2
2.13409E-1,-6.23855E-2
2.13188E-1,-6.36749E-2
2.13714E-1,-6.43615E-2
2.13401E-1,-6.55517E-2
2.13081E-1,-6.71539E-2
2.13363E-1,-6.73294E-2
2.12730E-1,-6.87866E-2
2.13119E-1,-6.95953E-2
2.12982E-1,-7.09686E-2
2.13226E-1,-7.17773E-2
2.12844E-1,-7.28149E-2
2.12646E-1,-7.35321E-2
2.12493E-1,-7.46917E-2
2.12539E-1,-7.57293E-2
2.12402E-1,-7.67364E-2
2.12387E-1,-7.78350E-2
2.11929E-1,-7.87963E-2
2.12005E-1,-7.99560E-2
2.11914E-1,-8.04748E-2
2.11608E-1,-8.14209E-2
2.11471E-1,-8.25500E-2
2.11776E-1,-8.38012E-2
2.11227E-1,-8.43505E-2
2.10815E-1,-8.53118E-2
2.10845E-1,-8.62579E-2
2.10784E-1,-8.72345E-2
2.10693E-1,-8.83026E-2
2.10571E-1,-8.93859E-2
2.10372E-1,-9.00878E-2
2.10174E-1,-9.07440E-2
2.09686E-1,-9.22088E-2
2.09365E-1,-9.28497E-2
2.09274E-1,-9.42535E-2
2.09075E-1,-9.42993E-2
2.09152E-1,-9.58862E-2
2.08740E-1,-9.67102E-2
2.08572E-1,-9.75189E-2
2.08358E-1,-9.83734E-2
2.08358E-1,-9.93804E-2
2.07992E-1,-1.00647E-1
2.08389E-1,-1.01501E-1
2.07450E-1,-1.01890E-1
2.07397E-1,-1.03347E-1
2.07260E-1,-1.04011E-1
2.07061E-1,-1.05224E-1
2.06184E-1,-1.05926E-1
2.06062E-1,-1.06399E-1
2.05902E-1,-1.07696E-1
2.06108E-1,-1.08543E-1
2.05581E-1,-1.09489E-1
2.05467E-1,-1.10214E-1
2.04772E-1,-1.11244E-1
2.04681E-1,-1.12045E-1
2.04658E-1,-1.12869E-1
2.04406E-1,-1.13807E-1
2.03651E-1,-1.14433E-1
2.03903E-1,-1.15470E-1
2.03208E-1,-1.16088E-1
2.03018E-1,-1.17332E-1
2.03010E-1,-1.18141E-1
2.02827E-1,-1.18881E-1
2.01995E-1,-1.19613E-1
2.02384E-1,-1.20384E-1
2.01980E-1,-1.21109E-1
2.01553E-1,-1.21711E-1
2.01278E-1,-1.23008E-1
2.01034E-1,-1.23703E-1
2.00759E-1,-1.24115E-1
2.00393E-1,-1.25335E-1
1.99798E-1,-1.25869E-1
1.99569E-1,-1.26403E-1
1.99569E-1,-1.27853E-1
1.99432E-1,-1.28448E-1
1.98638E-1,-1.29257E-1
1.98669E-1,-1.30127E-1
1.98074E-1,-1.30905E-1
1.98486E-1,-1.31942E-1
1.97876E-1,-1.32598E-1
1.97555E-1,-1.33026E-1
1.96975E-1,-1.34445E-1
1.96929E-1,-1.3414E-1
1.96441E-1,-1.35330E-1
1.96121E-1,-1.36322E-1
1.95282E-1,-1.36673E-1
1.95327E-1,-1.38183E-1
1.95388E-1,-1.39007E-1
1.94458E-1,-1.39068E-1
1.94458E-1,-1.40380E-1
1.94259E-1,-1.40487E-1
1.94061E-1,-1.41006E-1
1.93695E-1,-1.42318E-1
1.92901E-1,-1.43264E-1
1.92962E-1,-1.43539E-1
1.92413E-1,-1.43997E-1
1.91726E-1,-1.45431E-1
1.91452E-1,-1.45278E-1
1.91223E-1,-1.46545E-1
1.91131E-1,-1.46911E-1
1.90414E-1,-1.47964E-1
1.90856E-1,-1.48849E-1
1.89987E-1,-1.49322E-1
1.90216E-1,-1.49978E-1
1.89743E-1,-1.50024E-1
1.89086E-1,-1.51367E-1
1.88339E-1,-1.51489E-1
1.88476E-1,-1.52511E-1
1.88034E-1,-1.52786E-1
1.87789E-1,-1.53793E-1
1.87622E-1,-1.54052E-1
1.86737E-1,-1.54541E-1
1.86584E-1,-1.55624E-1
1.86157E-1,-1.56082E-1
1.85699E-1,-1.56784E-1
1.85668E-1,-1.56967E-1
1.85058E-1,-1.58325E-1
1.84463E-1,-1.58386E-1
1.83975E-1,-1.59011E-1
1.84234E-1,-1.59606E-1
1.83822E-1,-1.60232E-1
1.83639E-1,-1.60995E-1
1.82937E-1,-1.61270E-1
1.82678E-1,-1.61941E-1
1.82067E-1,-1.62597E-1
1.81945E-1,-1.63284E-1
1.81518E-1,-1.63421E-1
1.81320E-1,-1.64169E-1
1.80770E-1,-1.64276E-1
1.80877E-1,-1.64703E-1
1.79931E-1,-1.65557E-1
1.79885E-1,-1.66183E-1
1.79245E-1,-1.66595E-1
1.78619E-1,-1.67236E-1
1.78512E-1,-1.67770E-1
1.77825E-1,-1.68106E-1
1.77581E-1,-1.68670E-1
1.77612E-1,-1.69189E-1
1.77139E-1,-1.69601E-1
1.7659E-1,-1.69845E-1
1.76055E-1,-1.70562E-1
1.75857E-1,-1.7099E-1
1.75613E-1,-1.71356E-1
1.74850E-1,-1.71829E-1
1.74408E-1,-1.72103E-1
1.74560E-1,-1.72821E-1
1.73828E-1,-1.72836E-1
1.73645E-1,-1.73873E-1
1.72866E-1,-1.74484E-1
1.72821E-1,-1.75125E-1
1.72287E-1,-1.75079E-1
1.71936E-1,-1.75750E-1
1.71417E-1,-1.76086E-1
1.71157E-1,-1.76628E-1
1.70585E-1,-1.77024E-1
1.70509E-1,-1.76940E-1
1.69609E-1,-1.77261E-1
1.69410E-1,-1.77848E-1
1.69364E-1,-1.78497E-1
1.68647E-1,-1.78611E-1
1.68335E-1,-1.78962E-1
1.67701E-1,-1.78939E-1
1.67869E-1,-1.79336E-1
1.66702E-1,-1.80297E-1
1.66755E-1,-1.80236E-1
1.66069E-1,-1.80580E-1
1.65954E-1,-1.81259E-1
1.65527E-1,-1.80816E-1
1.65275E-1,-1.81747E-1
1.64703E-1,-1.81518E-1
1.64268E-1,-1.82899E-1
1.64482E-1,-1.82151E-1
1.64001E-1,-1.82586E-1
1.63040E-1,-1.83029E-1
1.62735E-1,-1.83441E-1
1.62231E-1,-1.83395E-1
1.62124E-1,-1.84036E-1
1.61331E-1,-1.83624E-1
1.60690E-1,-1.84722E-1
1.60263E-1,-1.84799E-1
1.60827E-1,-1.85333E-1
1.60202E-1,-1.84845E-1
1.59973E-1,-1.85348E-1
1.59362E-1,-1.85516E-1
1.59072E-1,-1.85974E-1
1.58493E-1,-1.86157E-1
1.58218E-1,-1.85852E-1
1.57829E-1,-1.86454E-1
1.57539E-1,-1.86653E-1
1.56967E-1,-1.86653E-1
1.56684E-1,-1.86409E-1
1.55990E-1,-1.87110E-1
1.56173E-1,-1.87698E-1
1.55525E-1,-1.87240E-1
1.55342E-1,-1.87286E-1
1.54769E-1,-1.87881E-1
1.54441E-1,-1.87973E-1
1.53839E-1,-1.88217E-1
1.53595E-1,-1.88163E-1
1.53343E-1,-1.87881E-1
1.52900E-1,-1.88560E-1
1.52557E-1,-1.88606E-1
1.52381E-1,-1.88644E-1
1.51771E-1,-1.88919E-1
1.51580E-1,-1.89125E-1
1.50512E-1,-1.89048E-1
1.50512E-1,-1.88972E-1
1.50199E-1,-1.89689E-1
1.49856E-1,-1.89376E-1
1.49581E-1,-1.89415E-1
1.49169E-1,-1.8927E-1
1.49063E-1,-1.89086E-1
1.48986E-1,-1.89300E-1
1.48544E-1,-1.89743E-1
1.47766E-1,-1.89392E-1
1.47415E-1,-1.89529E-1
1.47262E-1,-1.89621E-1
1.46209E-1,-1.89605E-1
1.46408E-1,-1.90185E-1
1.46286E-1,-1.89102E-1
1.45889E-1,-1.90017E-1
1.45507E-1,-1.89697E-1
1.45568E-1,-1.90017E-1
1.44638E-1,-1.90292E-1
1.44805E-1,-1.90139E-1
1.44805E-1,-1.90139E-1
1.44088E-1,-1.90048E-1
1.44317E-1,-1.90048E-1
1.43829E-1,-1.90582E-1
1.44088E-1,-1.89773E-1
1.43249E-1,-1.90612E-1
1.42959E-1,-1.90109E-1
1.42379E-1,-1.90078E-1
1.41891E-1,-1.90307E-1
1.42089E-1,-1.90124E-1
1.41723E-1,-1.90277E-1
1.41387E-1,-1.90246E-1
1.40899E-1,-1.90353E-1
1.41128E-1,-1.90841E-1
1.40960E-1,-1.90902E-1
1.40441E-1,-1.90994E-1
1.40640E-1,-1.91055E-1
1.39907E-1,-1.90856E-1
1.39663E-1,-1.9104E-1
1.39709E-1,-1.90841E-1
1.39358E-1,-1.91391E-1
1.39465E-1,-1.91558E-1
1.39190E-1,-1.90948E-1
1.38763E-1,-1.91177E-1
1.38076E-1,-1.91452E-1
1.37420E-1,-1.91665E-1
1.38061E-1,-1.91345E-1
1.37710E-1,-1.91558E-1
1.37451E-1,-1.91650E-1
1.37420E-1,-1.92184E-1
1.36947E-1,-1.92062E-1
1.37039E-1,-1.92001E-1
1.36077E-1,-1.91818E-1
1.36718E-1,-1.92855E-1
1.35833E-1,-1.92962E-1
1.35788E-1,-1.93313E-1
1.35421E-1,-1.93023E-1
1.34719E-1,-1.92825E-1
1.34719E-1,-1.93344E-1
1.34231E-1,-1.93283E-1
1.33682E-1,-1.93908E-1
1.33285E-1,-1.93374E-1
1.32782E-1,-1.93832E-1
1.32934E-1,-1.94198E-1
1.32934E-1,-1.94442E-1
1.32232E-1,-1.94152E-1
1.31881E-1,-1.94183E-1
1.31210E-1,-1.94473E-1
1.30737E-1,-1.95007E-1
1.29974E-1,-1.94290E-1
1.29791E-1,-1.94702E-1
1.29318E-1,-1.94809E-1
1.28738E-1,-1.95571E-1
1.28570E-1,-1.95007E-1
1.27655E-1,-1.95373E-1
1.27655E-1,-1.95999E-1
1.26602E-1,-1.95541E-1
1.26266E-1,-1.95343E-1
1.25976E-1,-1.95922E-1
1.25381E-1,-1.95343E-1
1.24984E-1,-1.95373E-1
1.24603E-1,-1.95694E-1
1.23626E-1,-1.95526E-1
1.23016E-1,-1.94976E-1
1.22528E-1,-1.95251E-1
1.22482E-1,-1.95602E-1
1.21353E-1,-1.95465E-1
1.21398E-1,-1.9487E-1
1.20315E-1,-1.95220E-1
1.20117E-1,-1.95236E-1
1.19751E-1,-1.94702E-1
1.19201E-1,-1.94320E-1
1.18713E-1,-1.9487E-1
1.17981E-1,-1.95083E-1
1.16882E-1,-1.95266E-1
1.17172E-1,-1.94595E-1
1.16485E-1,-1.94473E-1
1.16455E-1,-1.94213E-1
1.15631E-1,-1.94458E-1
1.15066E-1,-1.94046E-1
1.14776E-1,-1.94122E-1
1.14135E-1,-1.94046E-1
1.13891E-1,-1.93771E-1
1.13205E-1,-1.93725E-1
1.12472E-1,-1.93420E-1
1.12197E-1,-1.93252E-1
1.11511E-1,-1.92825E-1
1.10839E-1,-1.92749E-1
1.10046E-1,-1.93618E-1
1.09893E-1,-1.92916E-1
1.09443E-1,-1.92337E-1
1.09169E-1,-1.92314E-1
1.08642E-1,-1.91955E-1
1.08329E-1,-1.92337E-1
1.07666E-1,-1.92047E-1
1.06773E-1,-1.91902E-1
1.06391E-1,-1.91192E-1
1.05674E-1,-1.90902E-1
1.05079E-1,-1.90818E-1
1.04736E-1,-1.91001E-1
1.03645E-1,-1.90269E-1
1.03736E-1,-1.90055E-1
1.02989E-1,-1.89743E-1
1.02729E-1,-1.89102E-1
1.01829E-1,-1.89376E-1
1.01776E-1,-1.88797E-1
1.00807E-1,-1.87980E-1
1.00608E-1,-1.88430E-1
0.99823E-1,-1.87233E-1
0.99601E-1,-1.87294E-1
0.98777E-1,-1.86531E-1
0.98144E-1,-1.85775E-1
0.97213E-1,-1.85356E-1
0.96809E-1,-1.85363E-1
0.95893E-1,-1.84906E-1
0.96015E-1,-1.84196E-1
0.95657E-1,-1.84425E-1
0.95443E-1,-1.83258E-1
0.95268E-1,-1.82228E-1
0.94909E-1,-1.81991E-1
0.94009E-1,-1.81320E-1
0.93795E-1,-1.80221E-1
0.93994E-1,-1.80206E-1
0.93681E-1,-1.79847E-1
0.93215E-1,-1.78443E-1
0.92430E-1,-1.78268E-1
0.93185E-1,-1.77970E-1
0.92735E-1,-1.77314E-1
0.92796E-1,-1.76216E-1
0.92773E-1,-1.76094E-1
0.92468E-1,-1.75842E-1
0.93048E-1,-1.75537E-1
0.92849E-1,-1.74507E-1
0.92422E-1,-1.73667E-1
0.92575E-1,-1.73896E-1
0.92308E-1,-1.73843E-1
0.92163E-1,-1.73042E-1
0.92254E-1,-1.72431E-1
0.92613E-1,-1.72126E-1
0.92498E-1,-1.72790E-1
0.92437E-1,-1.71981E-1
0.92262E-1,-1.72256E-1
0.91850E-1,-1.71463E-1
0.92392E-1,-1.71043E-1
0.92414E-1,-1.71272E-1
0.92353E-1,-1.70974E-1
0.91896E-1,-1.70524E-1
0.91514E-1,-1.70410E-1
0.91674E-1,-1.70120E-1
0.91682E-1,-1.69502E-1
0.91247E-1,-1.69952E-1
0.91049E-1,-1.69357E-1
0.91033E-1,-1.69372E-1
0.90393E-1,-1.68663E-1
0.90179E-1,-1.69075E-1
0.89637E-1,-1.68586E-1
0.89378E-1,-1.6819E-1
0.89683E-1,-1.67839E-1
0.89492E-1,-1.67663E-1
0.89050E-1,-1.67655E-1
0.88874E-1,-1.66893E-1
0.88401E-1,-1.66862E-1
0.88890E-1,-1.66786E-1
0.88546E-1,-1.66473E-1
0.87875E-1,-1.66008E-1
0.87959E-1,-1.65634E-1
0.87165E-1,-1.65550E-1
0.86883E-1,-1.65336E-1
0.86753E-1,-1.65184E-1
0.86692E-1,-1.64436E-1
0.85968E-1,-1.64444E-1
0.86395E-1,-1.64138E-1
0.85556E-1,-1.63497E-1
0.85632E-1,-1.63559E-1
0.84945E-1,-1.62521E-1
0.84838E-1,-1.62735E-1
0.8461E-1,-1.62155E-1
0.85022E-1,-1.61804E-1
0.84106E-1,-1.62384E-1
0.84426E-1,-1.61270E-1
0.83908E-1,-1.60537E-1
0.83419E-1,-1.60369E-1
0.83252E-1,-1.60263E-1
0.82977E-1,-1.59927E-1
0.82428E-1,-1.59240E-1
0.82672E-1,-1.59271E-1
0.82382E-1,-1.58371E-1
0.82748E-1,-1.57913E-1
0.81955E-1,-1.57577E-1
0.81359E-1,-1.56768E-1
0.81588E-1,-1.56494E-1
0.81237E-1,-1.56875E-1
0.81024E-1,-1.56219E-1
0.80535E-1,-1.55258E-1
0.8078E-1,-1.55197E-1
0.80352E-1,-1.54647E-1
0.79681E-1,-1.53991E-1
0.79986E-1,-1.53518E-1
0.79299E-1,-1.53076E-1
0.79254E-1,-1.5271E-1
0.78750E-1,-1.52664E-1
0.78903E-1,-1.52252E-1
0.78659E-1,-1.51413E-1
0.78414E-1,-1.51275E-1
0.78140E-1,-1.50604E-1
0.77743E-1,-1.50070E-1
0.77224E-1,-1.49597E-1
0.77697E-1,-1.49231E-1
0.77255E-1,-1.48986E-1
0.77148E-1,-1.48208E-1
0.77148E-1,-1.47705E-1
0.76934E-1,-1.47186E-1
0.76355E-1,-1.46240E-1
0.76095E-1,-1.46392E-1
0.75454E-1,-1.45584E-1
0.75973E-1,-1.45492E-1
0.75500E-1,-1.44577E-1
0.75073E-1,-1.44302E-1
0.75103E-1,-1.43249E-1
0.74859E-1,-1.43173E-1
0.74768E-1,-1.42257E-1
0.74630E-1,-1.42547E-1
0.73959E-1,-1.42044E-1
0.73974E-1,-1.41426E-1
0.73875E-1,-1.40785E-1
0.74035E-1,-1.40113E-1
0.73669E-1,-1.40403E-1
0.7341E-1,-1.39228E-1
0.73196E-1,-1.38656E-1
0.72814E-1,-1.37771E-1
0.72708E-1,-1.37191E-1
0.72906E-1,-1.36405E-1
0.72647E-1,-1.36085E-1
0.72036E-1,-1.35704E-1
0.72494E-1,-1.35215E-1
0.72074E-1,-1.34597E-1
0.71373E-1,-1.34437E-1
0.71418E-1,-1.33834E-1
0.71441E-1,-1.33056E-1
0.71182E-1,-1.32568E-1
0.70701E-1,-1.31759E-1
0.71212E-1,-1.31485E-1
0.70922E-1,-1.31027E-1
0.70549E-1,-1.30363E-1
0.71083E-1,-1.29730E-1
0.70457E-1,-1.28639E-1
0.69923E-1,-1.28463E-1
0.69908E-1,-1.28189E-1
0.69908E-1,-1.27166E-1
0.69778E-1,-1.26976E-1
0.69053E-1,-1.26258E-1
0.68977E-1,-1.25640E-1
0.68771E-1,-1.25015E-1
6.86645E-2,-1.24912E-1
6.88858E-2,-1.24309E-1
6.88400E-2,-1.23817E-1
6.87408E-2,-1.23279E-1
6.82716E-2,-1.22131E-1
6.77223E-2,-1.21234E-1
6.82029E-2,-1.21028E-1
6.80007E-2,-1.20372E-1
6.79969E-2,-1.20002E-1
6.76994E-2,-1.19243E-1
6.75964E-2,-1.18713E-1
6.79893E-2,-1.18171E-1
6.71958E-2,-1.17034E-1
6.76612E-2,-1.16836E-1
6.72378E-2,-1.15913E-1
6.68792E-2,-1.15482E-1
6.73484E-2,-1.15432E-1
6.65664E-2,-1.14399E-1
6.63070E-2,-1.13586E-1
6.66046E-2,-1.12472E-1
6.62994E-2,-1.12632E-1
6.65283E-2,-1.12213E-1
6.60171E-2,-1.11038E-1
6.63681E-2,-1.10710E-1
6.57844E-2,-1.10038E-1
6.56623E-2,-1.09352E-1
6.60133E-2,-1.09046E-1
6.56204E-2,-1.08558E-1
6.55059E-2,-1.07597E-1
6.56013E-2,-1.07128E-1
6.51817E-2,-1.06895E-1
6.52999E-2,-1.05934E-1
6.46667E-2,-1.05098E-1
6.54792E-2,-1.04625E-1
6.51702E-2,-1.04042E-1
6.45256E-2,-1.03649E-1
6.44378E-2,-1.02684E-1
6.50787E-2,-1.02062E-1
6.50939E-2,-1.01821E-1
6.42623E-2,-1.01074E-1
6.42395E-2,-1.00292E-1
6.38542E-2,-9.92431E-2
6.39648E-2,-9.87510E-2
6.38732E-2,-9.87281E-2
6.44683E-2,-9.81483E-2
6.44187E-2,-9.77439E-2
6.38427E-2,-9.69390E-2
6.38542E-2,-9.60044E-2
6.40068E-2,-9.52491E-2
6.35414E-2,-9.49592E-2
6.30531E-2,-9.41047E-2
6.33506E-2,-9.34639E-2
6.33468E-2,-9.22966E-2
6.34727E-2,-9.22431E-2
6.30569E-2,-9.17701E-2
6.28852E-2,-9.11560E-2
6.30836E-2,-9.05494E-2
6.29882E-2,-8.97941E-2
6.25839E-2,-8.91990E-2
6.26297E-2,-8.83903E-2
