CITIFILE A.01.00
#NA VERSION HP8753D.06.12
NAME DATA
VAR FREQ MAG 1601
DATA S[1,1] RI
SEG_LIST_BEGIN
SEG 100000000 200000000 1601
SEG_LIST_END
BEGIN
-1.78527E-1,3.2547E-1
-1.70013E-1,3.26232E-1
-1.61529E-1,3.27179E-1
-1.53060E-1,3.27301E-1
-1.44516E-1,3.27209E-1
-1.36673E-1,3.27209E-1
-1.28341E-1,3.26904E-1
-1.20224E-1,3.25973E-1
-1.12457E-1,3.25225E-1
-1.04232E-1,3.24081E-1
-9.64355E-2,3.22601E-1
-8.85162E-2,3.21136E-1
-8.07800E-2,3.19076E-1
-7.31964E-2,3.17474E-1
-6.58569E-2,3.15231E-1
-5.83496E-2,3.12301E-1
-5.05676E-2,3.09890E-1
-4.38079E-2,3.06839E-1
-3.67584E-2,3.03665E-1
-2.96478E-2,2.99758E-1
-2.22778E-2,2.96432E-1
-1.54724E-2,2.92648E-1
-8.59069E-3,2.88467E-1
-1.64794E-3,2.84378E-1
0.04745E-1,2.79693E-1
0.11718E-1,2.75177E-1
0.18066E-1,2.70309E-1
0.24704E-1,2.65518E-1
0.31005E-1,2.60086E-1
0.37414E-1,2.54989E-1
0.43228E-1,2.49267E-1
0.49408E-1,2.43255E-1
0.55526E-1,2.37793E-1
0.61508E-1,2.31567E-1
0.67199E-1,2.25585E-1
0.73074E-1,2.19108E-1
0.78476E-1,2.12669E-1
0.83969E-1,2.06268E-1
0.89500E-1,1.99722E-1
0.94741E-1,1.92787E-1
0.99556E-1,1.86111E-1
1.04400E-1,1.79161E-1
1.09787E-1,1.71997E-1
1.14387E-1,1.65130E-1
1.18614E-1,1.57814E-1
1.23176E-1,1.50848E-1
1.27510E-1,1.43608E-1
1.31561E-1,1.36245E-1
1.35726E-1,1.28982E-1
1.39694E-1,1.21704E-1
1.43623E-1,1.14448E-1
1.47155E-1,1.07101E-1
1.50795E-1,0.99662E-1
1.54151E-1,0.92468E-1
1.57310E-1,0.85128E-1
1.60347E-1,0.77751E-1
1.63574E-1,0.70465E-1
1.66465E-1,0.63476E-1
1.69059E-1,0.56228E-1
1.71615E-1,0.48881E-1
1.74018E-1,0.41717E-1
1.76239E-1,0.34744E-1
1.78405E-1,0.27412E-1
1.80450E-1,0.20538E-1
1.82189E-1,0.13626E-1
1.83700E-1,0.07026E-1
1.85150E-1,0.00007E-1
1.86676E-1,-6.27899E-3
1.87690E-1,-1.29013E-2
1.88743E-1,-1.93710E-2
1.89521E-1,-2.57186E-2
1.90147E-1,-3.18069E-2
1.90704E-1,-3.81088E-2
1.91017E-1,-4.38308E-2
1.91200E-1,-4.98199E-2
1.91268E-1,-5.58090E-2
1.91223E-1,-6.13403E-2
1.90910E-1,-6.69479E-2
1.90574E-1,-7.22503E-2
1.89880E-1,-7.74841E-2
1.89010E-1,-8.25424E-2
1.88171E-1,-8.78143E-2
1.87240E-1,-9.25293E-2
1.85653E-1,-9.71374E-2
1.84501E-1,-1.02027E-1
1.82815E-1,-1.06460E-1
1.81045E-1,-1.10878E-1
1.79397E-1,-1.15135E-1
1.77146E-1,-1.19300E-1
1.75338E-1,-1.23146E-1
1.72882E-1,-1.26892E-1
1.70509E-1,-1.30714E-1
1.67999E-1,-1.34292E-1
1.65214E-1,-1.37809E-1
1.62017E-1,-1.41159E-1
1.59347E-1,-1.44256E-1
1.56066E-1,-1.47583E-1
1.52679E-1,-1.5065E-1
1.49322E-1,-1.53640E-1
1.45889E-1,-1.56585E-1
1.42082E-1,-1.59263E-1
1.38465E-1,-1.61697E-1
1.34529E-1,-1.64382E-1
1.30477E-1,-1.66633E-1
1.26709E-1,-1.68670E-1
1.22421E-1,-1.71379E-1
1.17996E-1,-1.73210E-1
1.13769E-1,-1.75346E-1
1.09588E-1,-1.77093E-1
1.04843E-1,-1.79199E-1
1.00463E-1,-1.80648E-1
0.95748E-1,-1.82563E-1
0.91117E-1,-1.83891E-1
0.86685E-1,-1.85333E-1
0.81733E-1,-1.86546E-1
0.77186E-1,-1.88018E-1
0.72364E-1,-1.89300E-1
0.67657E-1,-1.90033E-1
0.63003E-1,-1.91192E-1
0.58250E-1,-1.92382E-1
0.53352E-1,-1.93054E-1
0.48561E-1,-1.94046E-1
0.44143E-1,-1.94732E-1
0.39169E-1,-1.95381E-1
0.34317E-1,-1.96334E-1
0.29739E-1,-1.96487E-1
0.24978E-1,-1.96731E-1
0.20233E-1,-1.97464E-1
0.15792E-1,-1.97830E-1
0.11261E-1,-1.97845E-1
0.06866E-1,-1.97998E-1
0.02273E-1,-1.97830E-1
-1.70135E-3,-1.97799E-1
-6.11877E-3,-1.97807E-1
-1.01547E-2,-1.97555E-1
-1.43432E-2,-1.97280E-1
-1.84478E-2,-1.96395E-1
-2.23388E-2,-1.96350E-1
-2.62146E-2,-1.95266E-1
-3.01361E-2,-1.94450E-1
-3.36227E-2,-1.94038E-1
-3.73992E-2,-1.92863E-1
-4.08783E-2,-1.91551E-1
-4.43573E-2,-1.90742E-1
-4.77066E-2,-1.89422E-1
-5.09948E-2,-1.87896E-1
-5.42144E-2,-1.86363E-1
-5.72662E-2,-1.84616E-1
-6.02874E-2,-1.83067E-1
-6.32171E-2,-1.81098E-1
-6.63147E-2,-1.79214E-1
-6.89926E-2,-1.77032E-1
-7.14492E-2,-1.75003E-1
-7.42034E-2,-1.72576E-1
-7.6828E-2,-1.70143E-1
-7.89108E-2,-1.67739E-1
-8.14132E-2,-1.64779E-1
-8.38470E-2,-1.62010E-1
-8.61511E-2,-1.59744E-1
-8.82415E-2,-1.56677E-1
-9.03778E-2,-1.53564E-1
-9.26971E-2,-1.50360E-1
-9.42840E-2,-1.47018E-1
-9.66568E-2,-1.43714E-1
-9.83963E-2,-1.40548E-1
-1.00616E-1,-1.36665E-1
-1.0215E-1,-1.334E-1
-1.04064E-1,-1.29707E-1
-1.05911E-1,-1.25930E-1
-1.07349E-1,-1.22272E-1
-1.08577E-1,-1.18114E-1
-1.10469E-1,-1.14341E-1
-1.11900E-1,-1.10225E-1
-1.13311E-1,-1.06308E-1
-1.14700E-1,-1.01894E-1
-1.16085E-1,-9.79728E-2
-1.17439E-1,-9.36279E-2
-1.18835E-1,-8.96911E-2
-1.19926E-1,-8.50677E-2
-1.21215E-1,-8.07800E-2
-1.22192E-1,-7.63931E-2
-1.22940E-1,-7.22045E-2
-1.24366E-1,-6.76345E-2
-1.25465E-1,-6.35070E-2
-1.26228E-1,-5.92193E-2
-1.27410E-1,-5.47561E-2
-1.28295E-1,-5.05752E-2
-1.29005E-1,-4.59671E-2
-1.29875E-1,-4.15267E-2
-1.30500E-1,-3.72695E-2
-1.31004E-1,-3.33099E-2
-1.31546E-1,-2.87094E-2
-1.32179E-1,-2.42233E-2
-1.32545E-1,-2.03094E-2
-1.32751E-1,-1.56402E-2
-1.33277E-1,-1.15432E-2
-1.33438E-1,-7.75146E-3
-1.33438E-1,-3.79943E-3
-1.33270E-1,0.00503E-1
-1.334E-1,0.04715E-1
-1.33216E-1,0.08651E-1
-1.32835E-1,0.12489E-1
-1.32705E-1,0.16639E-1
-1.32156E-1,0.20752E-1
-1.31568E-1,0.24787E-1
-1.31111E-1,0.28404E-1
-1.30516E-1,0.32539E-1
-1.29913E-1,0.35888E-1
-1.29058E-1,0.39947E-1
-1.27914E-1,0.43685E-1
-1.26838E-1,0.47431E-1
-1.25495E-1,0.51506E-1
-1.24771E-1,5.49621E-2
-1.23214E-1,5.84297E-2
-1.21818E-1,6.21337E-2
-1.20281E-1,6.60438E-2
-1.18763E-1,6.94160E-2
-1.17019E-1,7.29408E-2
-1.15020E-1,7.63778E-2
-1.13063E-1,7.99217E-2
-1.11110E-1,8.35418E-2
-1.08902E-1,8.70399E-2
-1.06750E-1,9.04808E-2
-1.04408E-1,9.35974E-2
-1.02203E-1,9.71298E-2
-9.96704E-2,1.00647E-1
-9.69848E-2,1.04366E-1
-9.45358E-2,1.07414E-1
-9.18655E-2,1.10679E-1
-8.88519E-2,1.13906E-1
-8.60672E-2,1.17279E-1
-8.32138E-2,1.20346E-1
-8.00247E-2,1.23939E-1
-7.70416E-2,1.27197E-1
-7.38601E-2,1.30355E-1
-7.04879E-2,1.33575E-1
-6.71844E-2,1.36558E-1
-6.36138E-2,1.39541E-1
-6.02798E-2,1.42471E-1
-5.68771E-2,1.45469E-1
-5.31463E-2,1.48559E-1
-4.95910E-2,1.51405E-1
-4.60968E-2,1.54518E-1
-4.21752E-2,1.57211E-1
-3.83987E-2,1.6008E-1
-3.43551E-2,1.63040E-1
-3.06701E-2,1.65344E-1
-2.67791E-2,1.68144E-1
-2.27279E-2,1.70799E-1
-1.87988E-2,1.73439E-1
-1.46484E-2,1.75872E-1
-1.05590E-2,1.78299E-1
-6.08825E-3,1.81060E-1
-2.05993E-3,1.83181E-1
0.01998E-1,1.85470E-1
0.06408E-1,1.87805E-1
0.10742E-1,1.89804E-1
0.14999E-1,1.91635E-1
0.19363E-1,1.93695E-1
0.23956E-1,1.95785E-1
0.28228E-1,1.97952E-1
0.33081E-1,1.99585E-1
0.37490E-1,2.01339E-1
0.42572E-1,2.03094E-1
0.46966E-1,2.04574E-1
0.51574E-1,2.06161E-1
0.56167E-1,2.0784E-1
0.61279E-1,2.09175E-1
0.66146E-1,2.10334E-1
0.70846E-1,2.11486E-1
0.75805E-1,2.12646E-1
0.80856E-1,2.13638E-1
0.85479E-1,2.14996E-1
0.90240E-1,2.15652E-1
0.95687E-1,2.16110E-1
1.00112E-1,2.17041E-1
1.05361E-1,2.17483E-1
1.10534E-1,2.18154E-1
1.14822E-1,2.18261E-1
1.20056E-1,2.18795E-1
1.24862E-1,2.19192E-1
1.30020E-1,2.19299E-1
1.35131E-1,2.19360E-1
1.40289E-1,2.19604E-1
1.45538E-1,2.19787E-1
1.50329E-1,2.19604E-1
1.55807E-1,2.19574E-1
1.60461E-1,2.19146E-1
1.65924E-1,2.18704E-1
1.70913E-1,2.18093E-1
1.75842E-1,2.18109E-1
1.81198E-1,2.17010E-1
1.85836E-1,2.16781E-1
1.91238E-1,2.15683E-1
1.96151E-1,2.15011E-1
2.01339E-1,2.13958E-1
2.06298E-1,2.12570E-1
2.11608E-1,2.11456E-1
2.16430E-1,2.10037E-1
2.21420E-1,2.08816E-1
2.26440E-1,2.07336E-1
2.31246E-1,2.05581E-1
2.36419E-1,2.03979E-1
2.41272E-1,2.02331E-1
2.46078E-1,2.00286E-1
2.50701E-1,1.98364E-1
2.55889E-1,1.96258E-1
2.60498E-1,1.94244E-1
2.65686E-1,1.92077E-1
2.70080E-1,1.89636E-1
2.74963E-1,1.87316E-1
2.79418E-1,1.84692E-1
2.84393E-1,1.81884E-1
2.89337E-1,1.79290E-1
2.93609E-1,1.76513E-1
2.98492E-1,1.73278E-1
3.02978E-1,1.70501E-1
3.07586E-1,1.67587E-1
3.12149E-1,1.64627E-1
3.16574E-1,1.61178E-1
3.21151E-1,1.58111E-1
3.25363E-1,1.54785E-1
3.29727E-1,1.51397E-1
3.34167E-1,1.47964E-1
3.38668E-1,1.44516E-1
3.42590E-1,1.40686E-1
3.46893E-1,1.37390E-1
3.51059E-1,1.33544E-1
3.55529E-1,1.30065E-1
3.59252E-1,1.25915E-1
3.62945E-1,1.22192E-1
3.66943E-1,1.18469E-1
3.70636E-1,1.14532E-1
3.74877E-1,1.10351E-1
3.78173E-1,1.06536E-1
3.82049E-1,1.02813E-1
3.85833E-1,0.98678E-1
3.89373E-1,0.94818E-1
3.92913E-1,0.90545E-1
3.96301E-1,0.86669E-1
3.99749E-1,0.8255E-1
4.02893E-1,0.78399E-1
4.06158E-1,0.74249E-1
4.09301E-1,0.70220E-1
4.12262E-1,0.65765E-1
4.15283E-1,0.61645E-1
4.18182E-1,0.57586E-1
4.20959E-1,0.53222E-1
4.24011E-1,0.49133E-1
4.25994E-1,0.44647E-1
4.28619E-1,0.40649E-1
4.31091E-1,0.35995E-1
4.33410E-1,0.31829E-1
4.35333E-1,0.27404E-1
4.37362E-1,0.23040E-1
4.39392E-1,0.18463E-1
4.41314E-1,0.14190E-1
4.42810E-1,0.09735E-1
4.44458E-1,0.05310E-1
4.46044E-1,0.00427E-1
4.47082E-1,-3.99780E-3
4.48638E-1,-8.45336E-3
4.49768E-1,-1.30920E-2
4.50653E-1,-1.75476E-2
4.51721E-1,-2.23693E-2
4.52789E-1,-2.68554E-2
4.53796E-1,-3.17382E-2
4.54193E-1,-3.60717E-2
4.55047E-1,-4.11224E-2
4.55535E-1,-4.61425E-2
4.56176E-1,-5.07202E-2
4.56573E-1,-5.55114E-2
4.56848E-1,-6.03637E-2
4.57336E-1,-6.56127E-2
4.57244E-1,-7.03430E-2
4.57428E-1,-7.53173E-2
4.5755E-1,-8.03833E-2
4.57763E-1,-8.56018E-2
4.57641E-1,-9.08508E-2
4.57397E-1,-9.59777E-2
4.57305E-1,-1.00860E-1
4.57153E-1,-1.06140E-1
4.57031E-1,-1.11221E-1
4.56695E-1,-1.16363E-1
4.56604E-1,-1.21734E-1
4.56237E-1,-1.26800E-1
4.55658E-1,-1.32019E-1
4.55383E-1,-1.37420E-1
4.54681E-1,-1.42486E-1
4.54376E-1,-1.48040E-1
4.53826E-1,-1.53350E-1
4.53308E-1,-1.58874E-1
4.52484E-1,-1.63726E-1
4.52270E-1,-1.69158E-1
4.51355E-1,-1.74133E-1
4.51049E-1,-1.79382E-1
4.50286E-1,-1.84295E-1
4.49798E-1,-1.89361E-1
4.49157E-1,-1.94305E-1
4.48638E-1,-1.99279E-1
4.48226E-1,-2.04254E-1
4.47631E-1,-2.09137E-1
4.46777E-1,-2.13806E-1
4.46319E-1,-2.18933E-1
4.45678E-1,-2.23266E-1
4.44976E-1,-2.28149E-1
4.44274E-1,-2.32727E-1
4.43512E-1,-2.37365E-1
4.42810E-1,-2.42065E-1
4.41864E-1,-2.46521E-1
4.41101E-1,-2.50762E-1
4.40246E-1,-2.54821E-1
4.39636E-1,-2.59338E-1
4.38446E-1,-2.63519E-1
4.37774E-1,-2.67364E-1
4.36431E-1,-2.71392E-1
4.35699E-1,-2.75390E-1
4.34600E-1,-2.79296E-1
4.33349E-1,-2.83111E-1
4.32220E-1,-2.86590E-1
4.30969E-1,-2.90069E-1
4.29199E-1,-2.93884E-1
4.28375E-1,-2.97424E-1
4.26483E-1,-3.00903E-1
4.24987E-1,-3.04138E-1
4.23584E-1,-3.07617E-1
4.21752E-1,-3.1073E-1
4.20288E-1,-3.13903E-1
4.18182E-1,-3.17169E-1
4.16442E-1,-3.19976E-1
4.14154E-1,-3.23242E-1
4.12536E-1,-3.26355E-1
4.10308E-1,-3.28811E-1
4.08203E-1,-3.31878E-1
4.05761E-1,-3.34716E-1
4.03289E-1,-3.37707E-1
4.00878E-1,-3.40118E-1
3.98284E-1,-3.43078E-1
3.95568E-1,-3.45825E-1
3.93127E-1,-3.48602E-1
3.90167E-1,-3.51318E-1
3.87634E-1,-3.53942E-1
3.84582E-1,-3.56536E-1
3.81225E-1,-3.58886E-1
3.78570E-1,-3.61663E-1
3.75091E-1,-3.64105E-1
3.71765E-1,-3.66790E-1
3.68652E-1,-3.69415E-1
3.65203E-1,-3.71978E-1
3.61724E-1,-3.74542E-1
3.58703E-1,-3.77258E-1
3.54797E-1,-3.79547E-1
3.51074E-1,-3.82019E-1
3.47595E-1,-3.84704E-1
3.4375E-1,-3.87146E-1
3.40332E-1,-3.89404E-1
3.36486E-1,-3.91540E-1
3.32702E-1,-3.94165E-1
3.28826E-1,-3.96484E-1
3.25042E-1,-3.98864E-1
3.20770E-1,-4.01489E-1
3.17047E-1,-4.03656E-1
3.13201E-1,-4.05792E-1
3.09204E-1,-4.08081E-1
3.05236E-1,-4.10339E-1
3.013E-1,-4.12414E-1
2.97546E-1,-4.14856E-1
2.93609E-1,-4.17022E-1
2.89245E-1,-4.19158E-1
2.85522E-1,-4.21295E-1
2.81280E-1,-4.23004E-1
2.77435E-1,-4.25079E-1
2.73559E-1,-4.27459E-1
2.69348E-1,-4.29290E-1
2.65228E-1,-4.31274E-1
2.61077E-1,-4.33197E-1
2.57080E-1,-4.35119E-1
2.53051E-1,-4.37194E-1
2.48870E-1,-4.38415E-1
2.44689E-1,-4.40002E-1
2.40387E-1,-4.41680E-1
2.36358E-1,-4.43359E-1
2.32177E-1,-4.45190E-1
2.27844E-1,-4.46807E-1
2.24029E-1,-4.48120E-1
2.20031E-1,-4.49401E-1
2.15759E-1,-4.51293E-1
2.11792E-1,-4.52301E-1
2.0755E-1,-4.53643E-1
2.03155E-1,-4.55078E-1
1.99432E-1,-4.56146E-1
1.95495E-1,-4.57244E-1
1.91375E-1,-4.58862E-1
1.86950E-1,-4.59381E-1
1.83136E-1,-4.60388E-1
1.78741E-1,-4.61578E-1
1.74499E-1,-4.62524E-1
1.70898E-1,-4.63531E-1
1.66427E-1,-4.64096E-1
1.62399E-1,-4.65087E-1
1.58721E-1,-4.65942E-1
1.54388E-1,-4.66720E-1
1.50054E-1,-4.67544E-1
1.46316E-1,-4.67971E-1
1.42211E-1,-4.68658E-1
1.38015E-1,-4.69207E-1
1.34094E-1,-4.69696E-1
1.29913E-1,-4.70092E-1
1.26129E-1,-4.70428E-1
1.21826E-1,-4.70764E-1
1.17813E-1,-4.71084E-1
1.13891E-1,-4.71313E-1
1.10046E-1,-4.71099E-1
1.06002E-1,-4.71374E-1
1.02111E-1,-4.71405E-1
0.98022E-1,-4.71237E-1
0.94345E-1,-4.71283E-1
0.90332E-1,-4.70886E-1
0.86517E-1,-4.70794E-1
0.82733E-1,-4.70336E-1
0.79071E-1,-4.69787E-1
0.75286E-1,-4.69207E-1
0.71533E-1,-4.68444E-1
0.67718E-1,-4.67865E-1
0.64086E-1,-4.67163E-1
0.60562E-1,-4.66186E-1
0.56732E-1,-4.65332E-1
0.53421E-1,-4.64218E-1
0.49652E-1,-4.63317E-1
0.45959E-1,-4.62097E-1
0.42465E-1,-4.60693E-1
0.38909E-1,-4.59518E-1
0.35430E-1,-4.58129E-1
0.31738E-1,-4.56665E-1
0.28198E-1,-4.54864E-1
0.24749E-1,-4.53186E-1
0.20874E-1,-4.51171E-1
0.17547E-1,-4.48974E-1
0.13610E-1,-4.46868E-1
0.09826E-1,-4.44732E-1
0.06164E-1,-4.43084E-1
0.03021E-1,-4.40307E-1
-5.79834E-4,-4.38049E-1
-4.48608E-3,-4.3573E-1
-8.42285E-3,-4.33258E-1
-1.20849E-2,-4.30511E-1
-1.60522E-2,-4.27673E-1
-1.95617E-2,-4.24835E-1
-2.35900E-2,-4.22119E-1
-2.71759E-2,-4.19235E-1
-3.125E-2,-4.16030E-1
-3.4729E-2,-4.12902E-1
-3.89404E-2,-4.09805E-1
-4.27246E-2,-4.06356E-1
-4.63104E-2,-4.03457E-1
-5.04303E-2,-4.00054E-1
-5.41229E-2,-3.96560E-1
-5.83648E-2,-3.93264E-1
-6.20269E-2,-3.89785E-1
-6.58264E-2,-3.86337E-1
-6.99462E-2,-3.83041E-1
-7.38983E-2,-3.79531E-1
-7.80029E-2,-3.75961E-1
-8.21533E-2,-3.72283E-1
-8.58154E-2,-3.68866E-1
-8.98590E-2,-3.65234E-1
-9.39941E-2,-3.61724E-1
-9.77478E-2,-3.57818E-1
-1.01944E-1,-3.54385E-1
-1.05651E-1,-3.50631E-1
-1.09512E-1,-3.46771E-1
-1.13418E-1,-3.43490E-1
-1.16973E-1,-3.39553E-1
-1.20712E-1,-3.36135E-1
-1.24481E-1,-3.32336E-1
-1.27838E-1,-3.28582E-1
-1.31485E-1,-3.24752E-1
-1.34994E-1,-3.21319E-1
-1.38504E-1,-3.17611E-1
-1.41677E-1,-3.13812E-1
-1.44790E-1,-3.10211E-1
-1.47705E-1,-3.06427E-1
-1.50970E-1,-3.02841E-1
-1.53945E-1,-2.99285E-1
-1.56433E-1,-2.95684E-1
-1.59317E-1,-2.91702E-1
-1.61666E-1,-2.88253E-1
-1.64215E-1,-2.84240E-1
-1.66702E-1,-2.80639E-1
-1.68899E-1,-2.76916E-1
-1.70974E-1,-2.73254E-1
-1.73202E-1,-2.69302E-1
-1.74835E-1,-2.65716E-1
-1.76925E-1,-2.61642E-1
-1.78894E-1,-2.58010E-1
-1.80267E-1,-2.54119E-1
-1.81854E-1,-2.50122E-1
-1.83380E-1,-2.45727E-1
-1.84387E-1,-2.41607E-1
-1.85699E-1,-2.37518E-1
-1.86981E-1,-2.33215E-1
-1.87744E-1,-2.29003E-1
-1.89086E-1,-2.24548E-1
-1.89636E-1,-2.20275E-1
-1.90216E-1,-2.15881E-1
-1.91299E-1,-2.11486E-1
-1.91558E-1,-2.06695E-1
-1.92153E-1,-2.0224E-1
-1.92092E-1,-1.97357E-1
-1.92627E-1,-1.92459E-1
-1.93038E-1,-1.87667E-1
-1.93054E-1,-1.82785E-1
-1.93206E-1,-1.77673E-1
-1.93008E-1,-1.72668E-1
-1.93206E-1,-1.67434E-1
-1.92932E-1,-1.62216E-1
-1.92825E-1,-1.57058E-1
-1.92733E-1,-1.51550E-1
-1.92260E-1,-1.46392E-1
-1.92031E-1,-1.40991E-1
-1.92031E-1,-1.35192E-1
-1.91589E-1,-1.29806E-1
-1.91131E-1,-1.24160E-1
-1.90414E-1,-1.18637E-1
-1.89788E-1,-1.12945E-1
-1.89132E-1,-1.07360E-1
-1.88507E-1,-1.01440E-1
-1.87759E-1,-9.60693E-2
-1.87286E-1,-9.02099E-2
-1.86187E-1,-8.41827E-2
-1.85455E-1,-7.87353E-2
-1.84570E-1,-7.29064E-2
-1.83532E-1,-6.71234E-2
-1.82525E-1,-6.13403E-2
-1.81320E-1,-5.54199E-2
-1.80297E-1,-4.98199E-2
-1.79122E-1,-4.44259E-2
-1.77551E-1,-3.85513E-2
-1.76170E-1,-3.33175E-2
-1.75003E-1,-2.80685E-2
-1.73309E-1,-2.24380E-2
-1.71913E-1,-1.69601E-2
-1.70303E-1,-1.13906E-2
-1.68716E-1,-5.96618E-3
-1.66671E-1,-1.06811E-3
-1.64794E-1,0.03990E-1
-1.62742E-1,0.09231E-1
-1.60774E-1,0.14373E-1
-1.58493E-1,0.19088E-1
-1.56127E-1,0.2388E-1
-1.54022E-1,0.28396E-1
-1.51382E-1,0.33447E-1
-1.48956E-1,0.38070E-1
-1.46225E-1,0.42373E-1
-1.43577E-1,0.46691E-1
-1.40914E-1,0.50994E-1
-1.38229E-1,0.55107E-1
-1.34979E-1,0.59356E-1
-1.32240E-1,0.63148E-1
-1.28913E-1,0.67306E-1
-1.25618E-1,0.71235E-1
-1.22520E-1,7.46307E-2
-1.18652E-1,7.80563E-2
-1.15821E-1,8.18786E-2
-1.11839E-1,8.55178E-2
-1.08627E-1,8.85849E-2
-1.04629E-1,9.18655E-2
-1.00662E-1,9.51919E-2
-9.67254E-2,9.81674E-2
-9.29184E-2,1.01142E-1
-8.89282E-2,1.03874E-1
-8.47320E-2,1.06697E-1
-8.04138E-2,1.09573E-1
-7.60574E-2,1.12037E-1
-7.16247E-2,1.14761E-1
-6.75048E-2,1.17141E-1
-6.30188E-2,1.19491E-1
-5.83267E-2,1.21658E-1
-5.41229E-2,1.23786E-1
-4.93545E-2,1.25968E-1
-4.45098E-2,1.28189E-1
-4.00695E-2,1.30012E-1
-3.51409E-2,1.31736E-1
-3.03192E-2,1.33323E-1
-2.54898E-2,1.34552E-1
-2.04162E-2,1.36459E-1
-1.57012E-2,1.37840E-1
-1.07421E-2,1.39061E-1
-5.79834E-3,1.40335E-1
-5.95092E-4,1.41525E-1
0.04447E-1,1.42700E-1
0.09529E-1,1.43661E-1
0.14595E-1,1.44485E-1
0.19668E-1,1.45027E-1
0.24917E-1,1.45820E-1
0.30242E-1,1.46362E-1
0.35461E-1,1.46926E-1
0.40786E-1,1.47064E-1
0.46127E-1,1.47399E-1
0.51361E-1,1.47659E-1
0.56625E-1,1.47827E-1
0.62072E-1,1.47766E-1
0.67459E-1,1.47552E-1
0.72814E-1,1.47583E-1
0.78178E-1,1.46995E-1
0.83541E-1,1.46919E-1
0.89035E-1,1.46583E-1
0.94360E-1,1.46209E-1
0.99876E-1,1.45492E-1
1.05026E-1,1.44790E-1
1.10611E-1,1.44187E-1
1.15882E-1,1.43470E-1
1.21315E-1,1.42707E-1
1.26701E-1,1.41777E-1
1.32125E-1,1.40739E-1
1.37229E-1,1.39617E-1
1.42814E-1,1.38671E-1
1.48056E-1,1.37588E-1
1.53259E-1,1.36520E-1
1.58577E-1,1.35108E-1
1.63635E-1,1.33850E-1
1.68899E-1,1.32843E-1
1.74102E-1,1.31195E-1
1.79077E-1,1.29699E-1
1.84249E-1,1.28463E-1
1.89132E-1,1.26693E-1
1.93893E-1,1.25061E-1
1.98791E-1,1.23245E-1
2.03582E-1,1.21856E-1
2.08419E-1,1.20147E-1
2.12799E-1,1.18713E-1
2.17620E-1,1.16516E-1
2.22137E-1,1.14654E-1
2.26394E-1,1.13220E-1
2.30545E-1,1.11251E-1
2.34756E-1,1.09420E-1
2.39273E-1,1.07345E-1
2.42950E-1,1.05423E-1
2.46810E-1,1.03103E-1
2.50564E-1,1.00769E-1
2.54486E-1,0.98983E-1
2.57675E-1,0.96572E-1
2.61322E-1,0.94146E-1
2.64694E-1,0.91644E-1
2.67852E-1,0.89309E-1
2.70736E-1,0.86837E-1
2.73803E-1,0.84167E-1
2.76550E-1,0.81573E-1
2.79617E-1,0.78979E-1
2.82363E-1,0.75988E-1
2.84729E-1,0.72998E-1
2.87216E-1,0.70159E-1
2.89703E-1,0.66925E-1
2.92205E-1,0.63751E-1
2.94372E-1,0.60546E-1
2.96264E-1,0.57037E-1
2.98400E-1,0.53680E-1
3.00247E-1,0.50399E-1
3.02063E-1,0.46890E-1
3.04107E-1,0.42938E-1
3.05572E-1,0.39199E-1
3.07403E-1,0.35247E-1
3.08822E-1,0.31280E-1
3.10363E-1,0.27145E-1
3.12072E-1,0.23101E-1
3.13140E-1,0.18631E-1
3.14804E-1,0.14694E-1
3.15643E-1,0.10223E-1
3.17367E-1,0.05783E-1
3.18237E-1,0.01159E-1
3.19503E-1,-3.31115E-3
3.20526E-1,-8.14819E-3
3.21838E-1,-1.27258E-2
3.22647E-1,-1.74255E-2
3.24157E-1,-2.22473E-2
3.25088E-1,-2.70690E-2
3.26141E-1,-3.18298E-2
3.27087E-1,-3.68042E-2
3.28216E-1,-4.17175E-2
3.29162E-1,-4.66003E-2
3.30474E-1,-5.14526E-2
3.31237E-1,-5.63659E-2
3.32519E-1,-6.11419E-2
3.33099E-1,-6.61468E-2
3.34472E-1,-7.09533E-2
3.35357E-1,-7.58667E-2
3.36029E-1,-8.08715E-2
3.37036E-1,-8.56170E-2
3.37966E-1,-9.01641E-2
3.39111E-1,-9.49096E-2
3.39874E-1,-9.96704E-2
3.40560E-1,-1.04461E-1
3.41766E-1,-1.08840E-1
3.42178E-1,-1.13388E-1
3.42941E-1,-1.17569E-1
3.43826E-1,-1.22070E-1
3.44390E-1,-1.26586E-1
3.45047E-1,-1.30569E-1
3.45840E-1,-1.34857E-1
3.46160E-1,-1.38992E-1
3.46694E-1,-1.43096E-1
3.46694E-1,-1.46972E-1
3.46786E-1,-1.50833E-1
3.47168E-1,-1.54418E-1
3.47412E-1,-1.58508E-1
3.47168E-1,-1.61956E-1
3.47503E-1,-1.65618E-1
3.47229E-1,-1.6922E-1
3.46893E-1,-1.72363E-1
3.46252E-1,-1.75933E-1
3.46008E-1,-1.79199E-1
3.45459E-1,-1.82464E-1
3.44757E-1,-1.86004E-1
3.43994E-1,-1.88995E-1
3.43139E-1,-1.92245E-1
3.42086E-1,-1.95114E-1
3.41339E-1,-1.98028E-1
3.39996E-1,-2.01171E-1
3.38684E-1,-2.04467E-1
3.37188E-1,-2.07397E-1
3.35708E-1,-2.10434E-1
3.34091E-1,-2.13287E-1
3.32305E-1,-2.16629E-1
3.30368E-1,-2.19314E-1
3.28170E-1,-2.22320E-1
3.26370E-1,-2.25448E-1
3.24142E-1,-2.28408E-1
3.21762E-1,-2.31430E-1
3.19610E-1,-2.34542E-1
3.17016E-1,-2.37548E-1
