CITIFILE A.01.00
#NA VERSION HP8753D.06.12
NAME DATA
VAR FREQ MAG 1601
DATA S[1,1] RI
SEG_LIST_BEGIN
SEG 50000000 250000000 1601
SEG_LIST_END
BEGIN
6.82312E-1,-7.14965E-1
6.79382E-1,-7.16796E-1
6.77429E-1,-7.18505E-1
6.75170E-1,-7.19970E-1
6.72851E-1,-7.22168E-1
6.71142E-1,-7.24853E-1
6.69433E-1,-7.26928E-1
6.67297E-1,-7.29370E-1
6.66198E-1,-7.31811E-1
6.63818E-1,-7.34375E-1
6.62689E-1,-7.3703E-1
6.60888E-1,-7.39440E-1
6.59423E-1,-7.41729E-1
6.58233E-1,-7.43743E-1
6.56555E-1,-7.45117E-1
6.54846E-1,-7.46612E-1
6.53747E-1,-7.47436E-1
6.52343E-1,-7.48535E-1
6.51001E-1,-7.49877E-1
6.49902E-1,-7.50854E-1
6.48071E-1,-7.51709E-1
6.46606E-1,-7.52807E-1
6.45019E-1,-7.54333E-1
6.43127E-1,-7.55737E-1
6.41418E-1,-7.57141E-1
6.38916E-1,-7.58911E-1
6.36383E-1,-7.60223E-1
6.34033E-1,-7.61871E-1
6.31195E-1,-7.63031E-1
6.28753E-1,-7.64434E-1
6.25885E-1,-7.65747E-1
6.22558E-1,-7.66723E-1
6.20239E-1,-7.68798E-1
6.17065E-1,-7.69958E-1
6.15295E-1,-7.71484E-1
6.12793E-1,-7.73071E-1
6.10473E-1,-7.75146E-1
6.08276E-1,-7.77221E-1
6.06201E-1,-7.79968E-1
6.04003E-1,-7.82409E-1
6.01623E-1,-7.84729E-1
5.99517E-1,-7.86956E-1
5.97869E-1,-7.89550E-1
5.95672E-1,-7.91351E-1
5.93811E-1,-7.93396E-1
5.91857E-1,-7.95166E-1
5.90362E-1,-7.96752E-1
5.88745E-1,-7.97973E-1
5.87036E-1,-7.98706E-1
5.85266E-1,-7.99926E-1
5.83801E-1,-8.00842E-1
5.82397E-1,-8.01635E-1
5.80688E-1,-8.02978E-1
5.78979E-1,-8.03710E-1
5.77209E-1,-8.05053E-1
5.74585E-1,-8.06945E-1
5.72387E-1,-8.08288E-1
5.69519E-1,-8.09204E-1
5.67077E-1,-8.10333E-1
5.63934E-1,-8.12011E-1
5.60913E-1,-8.12896E-1
5.57769E-1,-8.14239E-1
5.54443E-1,-8.14666E-1
5.51513E-1,-8.1604E-1
5.48461E-1,-8.17199E-1
5.46081E-1,-8.18298E-1
5.43335E-1,-8.20068E-1
5.40649E-1,-8.21533E-1
5.37841E-1,-8.24218E-1
5.35034E-1,-8.26538E-1
5.32531E-1,-8.28552E-1
5.29846E-1,-8.30993E-1
5.27160E-1,-8.33313E-1
5.24444E-1,-8.35418E-1
5.21850E-1,-8.37677E-1
5.19683E-1,-8.40148E-1
5.17211E-1,-8.41522E-1
5.15380E-1,-8.43505E-1
5.13244E-1,-8.44360E-1
5.11108E-1,-8.45764E-1
5.09094E-1,-8.46496E-1
5.07202E-1,-8.47168E-1
5.05371E-1,-8.48510E-1
5.03418E-1,-8.49975E-1
5.01098E-1,-8.50952E-1
4.98901E-1,-8.52294E-1
4.96643E-1,-8.53698E-1
4.93896E-1,-8.54675E-1
4.91638E-1,-8.57299E-1
4.88861E-1,-8.58612E-1
4.86053E-1,-8.58947E-1
4.83062E-1,-8.60321E-1
4.79583E-1,-8.60931E-1
4.76318E-1,-8.61724E-1
4.73205E-1,-8.62274E-1
4.70275E-1,-8.63037E-1
4.66918E-1,-8.64379E-1
4.64294E-1,-8.65722E-1
4.61059E-1,-8.67065E-1
4.58252E-1,-8.68774E-1
4.55566E-1,-8.70971E-1
4.52270E-1,-8.73168E-1
4.49340E-1,-8.75183E-1
4.46411E-1,-8.77380E-1
4.43603E-1,-8.79455E-1
4.40704E-1,-8.81561E-1
4.37439E-1,-8.83392E-1
4.34661E-1,-8.85131E-1
4.32098E-1,-8.86138E-1
4.29229E-1,-8.87298E-1
4.27307E-1,-8.88793E-1
4.25048E-1,-8.89221E-1
4.22424E-1,-8.90686E-1
4.20410E-1,-8.91601E-1
4.17724E-1,-8.92700E-1
4.15161E-1,-8.93920E-1
4.12719E-1,-8.95019E-1
4.09668E-1,-8.96728E-1
4.06555E-1,-8.97644E-1
4.03259E-1,-8.98986E-1
3.99719E-1,-8.99871E-1
3.95935E-1,-9.00695E-1
3.92547E-1,-9.01184E-1
3.88488E-1,-9.01947E-1
3.84826E-1,-9.02526E-1
3.81073E-1,-9.02954E-1
3.77960E-1,-9.04052E-1
3.73962E-1,-9.04907E-1
3.70666E-1,-9.05822E-1
3.67187E-1,-9.07226E-1
3.63647E-1,-9.08691E-1
3.60107E-1,-9.10644E-1
3.56445E-1,-9.12353E-1
3.52661E-1,-9.14428E-1
3.49304E-1,-9.16381E-1
3.46099E-1,-9.18060E-1
3.42620E-1,-9.19433E-1
3.38806E-1,-9.20867E-1
3.35754E-1,-9.22271E-1
3.32794E-1,-9.23400E-1
3.29834E-1,-9.23675E-1
3.26812E-1,-9.24926E-1
3.24188E-1,-9.25445E-1
3.21655E-1,-9.25903E-1
3.18786E-1,-9.26330E-1
3.1604E-1,-9.27124E-1
3.13110E-1,-9.27856E-1
3.09814E-1,-9.28466E-1
3.06518E-1,-9.29199E-1
3.03100E-1,-9.30297E-1
2.99011E-1,-9.30664E-1
2.94921E-1,-9.30481E-1
2.91107E-1,-9.31457E-1
2.86468E-1,-9.31610E-1
2.82470E-1,-9.31549E-1
2.78045E-1,-9.31274E-1
2.73437E-1,-9.31488E-1
2.69897E-1,-9.31854E-1
2.65655E-1,-9.32251E-1
2.61169E-1,-9.32861E-1
2.57202E-1,-9.3396E-1
2.53051E-1,-9.35058E-1
2.48779E-1,-9.36767E-1
2.44262E-1,-9.38110E-1
2.40356E-1,-9.39819E-1
2.35717E-1,-9.41223E-1
2.32177E-1,-9.43054E-1
2.27447E-1,-9.44122E-1
2.24029E-1,-9.45556E-1
2.19970E-1,-9.46685E-1
2.15942E-1,-9.47326E-1
2.12951E-1,-9.48425E-1
2.09747E-1,-9.49005E-1
2.06573E-1,-9.49768E-1
2.03674E-1,-9.49981E-1
2.00622E-1,-9.50500E-1
1.97265E-1,-9.50561E-1
1.94091E-1,-9.51293E-1
1.90673E-1,-9.51416E-1
1.87011E-1,-9.51416E-1
1.83105E-1,-9.52148E-1
1.78894E-1,-9.51782E-1
1.74133E-1,-9.51171E-1
1.70135E-1,-9.50958E-1
1.65466E-1,-9.50225E-1
1.60522E-1,-9.49432E-1
1.56005E-1,-9.48822E-1
1.51001E-1,-9.48089E-1
1.46331E-1,-9.47204E-1
1.41906E-1,-9.46716E-1
1.36962E-1,-9.46350E-1
1.32080E-1,-9.46655E-1
1.27197E-1,-9.47143E-1
1.21948E-1,-9.47509E-1
1.16577E-1,-9.48486E-1
1.11572E-1,-9.49096E-1
1.06323E-1,-9.50317E-1
1.01654E-1,-9.51049E-1
0.96221E-1,-9.51446E-1
0.91339E-1,-9.51782E-1
0.86731E-1,-9.52087E-1
0.82305E-1,-9.52789E-1
0.78064E-1,-9.52911E-1
0.73822E-1,-9.53216E-1
0.69824E-1,-9.53338E-1
0.66162E-1,-9.53735E-1
0.62713E-1,-9.53338E-1
0.59326E-1,-9.53369E-1
0.55053E-1,-9.53735E-1
0.50781E-1,-9.53735E-1
0.46875E-1,-9.53613E-1
0.42846E-1,-9.53247E-1
0.38330E-1,-9.52026E-1
0.33569E-1,-9.51263E-1
0.28839E-1,-9.50775E-1
0.23803E-1,-9.49127E-1
0.18859E-1,-9.47448E-1
0.13885E-1,-9.46014E-1
0.08606E-1,-9.44488E-1
0.04058E-1,-9.42871E-1
-1.09863E-3,-9.41833E-1
-6.74438E-3,-9.40429E-1
-1.19018E-2,-9.3927E-1
-1.72119E-2,-9.38598E-1
-2.35595E-2,-9.37866E-1
-2.86865E-2,-9.37255E-1
-3.51562E-2,-9.37377E-1
-4.07714E-2,-9.36889E-1
-4.6875E-2,-9.36828E-1
-5.23376E-2,-9.35852E-1
-5.86242E-2,-9.35211E-1
-6.34155E-2,-9.34631E-1
-6.88476E-2,-9.33990E-1
-7.36694E-2,-9.33319E-1
-7.84912E-2,-9.31823E-1
-8.33435E-2,-9.31701E-1
-8.80127E-2,-9.30755E-1
-9.24987E-2,-9.30114E-1
-9.66796E-2,-9.29443E-1
-1.00830E-1,-9.28222E-1
-1.05346E-1,-9.27124E-1
-1.10107E-1,-9.26391E-1
-1.14502E-1,-9.24804E-1
-1.19751E-1,-9.23461E-1
-1.24939E-1,-9.21264E-1
-1.29638E-1,-9.18975E-1
-1.34948E-1,-9.16961E-1
-1.39801E-1,-9.14581E-1
-1.44989E-1,-9.11651E-1
-1.50024E-1,-9.08874E-1
-1.55487E-1,-9.06707E-1
-1.60553E-1,-9.03717E-1
-1.65893E-1,-9.01611E-1
-1.71112E-1,-8.99505E-1
-1.76879E-1,-8.97216E-1
-1.82373E-1,-8.95263E-1
-1.88476E-1,-8.93920E-1
-1.94946E-1,-8.91357E-1
-2.00927E-1,-8.89526E-1
-2.06787E-1,-8.87634E-1
-2.12554E-1,-8.85559E-1
-2.18383E-1,-8.83392E-1
-2.24395E-1,-8.81195E-1
-2.29980E-1,-8.78601E-1
-2.35290E-1,-8.76495E-1
-2.40539E-1,-8.74054E-1
-2.45422E-1,-8.71521E-1
-2.50183E-1,-8.69018E-1
-2.55310E-1,-8.67004E-1
-2.60192E-1,-8.64257E-1
-2.64526E-1,-8.61450E-1
-2.69897E-1,-8.58886E-1
-2.74414E-1,-8.56445E-1
-2.80029E-1,-8.53393E-1
-2.85034E-1,-8.50402E-1
-2.90161E-1,-8.46252E-1
-2.95227E-1,-8.42712E-1
-3.00170E-1,-8.38562E-1
-3.05481E-1,-8.34411E-1
-3.10668E-1,-8.30658E-1
-3.15856E-1,-8.25988E-1
-3.20678E-1,-8.21777E-1
-3.25561E-1,-8.17779E-1
-3.31359E-1,-8.13568E-1
-3.36792E-1,-8.09875E-1
-3.42346E-1,-8.06152E-1
-3.47778E-1,-8.01879E-1
-3.53637E-1,-7.98339E-1
-3.59619E-1,-7.94189E-1
-3.65173E-1,-7.90588E-1
-3.70910E-1,-7.86865E-1
-3.76953E-1,-7.82592E-1
-3.82171E-1,-7.78656E-1
-3.87786E-1,-7.74871E-1
-3.92974E-1,-7.70355E-1
-3.97735E-1,-7.66052E-1
-4.02557E-1,-7.61779E-1
-4.07318E-1,-7.57904E-1
-4.11987E-1,-7.53601E-1
-4.16687E-1,-7.49877E-1
-4.21386E-1,-7.45208E-1
-4.25598E-1,-7.40722E-1
-4.29931E-1,-7.35961E-1
-4.34692E-1,-7.31445E-1
-4.38903E-1,-7.25891E-1
-4.43969E-1,-7.21374E-1
-4.48242E-1,-7.15637E-1
-4.52270E-1,-7.10144E-1
-4.56481E-1,-7.0401E-1
-4.60540E-1,-6.97937E-1
-4.64843E-1,-6.91711E-1
-4.68872E-1,-6.85485E-1
-4.72991E-1,-6.79046E-1
-4.77417E-1,-6.73248E-1
-4.81750E-1,-6.66687E-1
-4.85870E-1,-6.60430E-1
-4.90631E-1,-6.54357E-1
-4.95208E-1,-6.47979E-1
-4.99939E-1,-6.42028E-1
-5.04333E-1,-6.35559E-1
-5.08972E-1,-6.29333E-1
-5.13488E-1,-6.22924E-1
-5.17883E-1,-6.16394E-1
-5.21789E-1,-6.10351E-1
-5.25756E-1,-6.03515E-1
-5.29510E-1,-5.96984E-1
-5.32989E-1,-5.90515E-1
-5.36773E-1,-5.84106E-1
-5.40161E-1,-5.77331E-1
-5.43518E-1,-5.71014E-1
-5.46814E-1,-5.64605E-1
-5.49957E-1,-5.57952E-1
-5.53131E-1,-5.50933E-1
-5.56182E-1,-5.4422E-1
-5.59082E-1,-5.37353E-1
-5.61889E-1,-5.30212E-1
-5.64514E-1,-5.22827E-1
-5.67260E-1,-5.15380E-1
-5.69519E-1,-5.07751E-1
-5.71838E-1,-5.00061E-1
-5.74523E-1,-4.91912E-1
-5.76660E-1,-4.84069E-1
-5.78949E-1,-4.76013E-1
-5.81115E-1,-4.67804E-1
-5.82885E-1,-4.59838E-1
-5.84747E-1,-4.51934E-1
-5.86792E-1,-4.43847E-1
-5.88897E-1,-4.35668E-1
-5.91125E-1,-4.27887E-1
-5.93109E-1,-4.19494E-1
-5.95031E-1,-4.11499E-1
-5.96740E-1,-4.03259E-1
-5.98510E-1,-3.95507E-1
-6.00219E-1,-3.87085E-1
-6.01440E-1,-3.79119E-1
-6.02661E-1,-3.70971E-1
-6.03515E-1,-3.62823E-1
-6.04217E-1,-3.54583E-1
-6.05255E-1,-3.46405E-1
-6.05743E-1,-3.38439E-1
-6.05835E-1,-3.30596E-1
-6.06140E-1,-3.22296E-1
-6.06567E-1,-3.14849E-1
-6.06262E-1,-3.06701E-1
-6.06445E-1,-2.98278E-1
-6.06170E-1,-2.90161E-1
-6.05712E-1,-2.81677E-1
-6.05346E-1,-2.73437E-1
-6.04553E-1,-2.64770E-1
-6.03881E-1,-2.56469E-1
-6.02783E-1,-2.47955E-1
-6.01532E-1,-2.39440E-1
-6.00311E-1,-2.30499E-1
-5.99029E-1,-2.21923E-1
-5.97869E-1,-2.13226E-1
-5.96252E-1,-2.04772E-1
-5.94665E-1,-1.96044E-1
-5.93078E-1,-1.87377E-1
-5.91369E-1,-1.78680E-1
-5.89813E-1,-1.70196E-1
-5.88134E-1,-1.61590E-1
-5.85937E-1,-1.52984E-1
-5.84167E-1,-1.44409E-1
-5.81848E-1,-1.36383E-1
-5.80047E-1,-1.27899E-1
-5.77819E-1,-1.19659E-1
-5.75134E-1,-1.11267E-1
-5.72387E-1,-1.03302E-1
-5.69976E-1,-9.50622E-2
-5.67352E-1,-8.71276E-2
-5.64056E-1,-7.94372E-2
-5.60821E-1,-7.13501E-2
-5.57922E-1,-6.38122E-2
-5.54473E-1,-5.59387E-2
-5.51361E-1,-4.84619E-2
-5.47607E-1,-4.10461E-2
-5.43975E-1,-3.37219E-2
-5.40374E-1,-2.61840E-2
-5.36438E-1,-1.87377E-2
-5.32684E-1,-1.14135E-2
-5.28228E-1,-4.30297E-3
-5.24017E-1,0.02594E-1
-5.19653E-1,0.09552E-1
-5.15319E-1,0.16845E-1
-5.10284E-1,0.23712E-1
-5.05584E-1,0.30639E-1
-5.00946E-1,0.37262E-1
-4.96032E-1,0.43701E-1
-4.91241E-1,0.50293E-1
-4.85992E-1,0.56655E-1
-4.81048E-1,0.63064E-1
-4.75708E-1,0.69534E-1
-4.70306E-1,0.75698E-1
-4.64981E-1,0.81970E-1
-4.59808E-1,0.87860E-1
-4.54223E-1,0.93841E-1
-4.48608E-1,0.99853E-1
-4.42779E-1,1.05499E-1
-4.37194E-1,1.11511E-1
-4.31366E-1,1.17019E-1
-4.25933E-1,1.22833E-1
-4.19418E-1,1.28509E-1
-4.13772E-1,1.33819E-1
-4.07745E-1,1.38946E-1
-4.01733E-1,1.44180E-1
-3.95660E-1,1.48864E-1
-3.89862E-1,1.54098E-1
-3.83789E-1,1.58889E-1
-3.77822E-1,1.63650E-1
-3.71612E-1,1.68502E-1
-3.65325E-1,1.72988E-1
-3.59527E-1,1.77398E-1
-3.53179E-1,1.81518E-1
-3.47045E-1,1.8573E-1
-3.40805E-1,1.89651E-1
-3.34838E-1,1.93237E-1
-3.28414E-1,1.97036E-1
-3.22021E-1,2.00607E-1
-3.15887E-1,2.03750E-1
-3.09539E-1,2.06817E-1
-3.03344E-1,2.09686E-1
-2.96875E-1,2.12600E-1
-2.90588E-1,2.15332E-1
-2.84332E-1,2.17636E-1
-2.77969E-1,2.20321E-1
-2.71301E-1,2.22778E-1
-2.64862E-1,2.25036E-1
-2.58239E-1,2.27142E-1
-2.51342E-1,2.29126E-1
-2.44873E-1,2.31445E-1
-2.38159E-1,2.33215E-1
-2.31445E-1,2.35290E-1
-2.24731E-1,2.36846E-1
-2.17620E-1,2.38647E-1
-2.10800E-1,2.39944E-1
-2.03933E-1,2.41607E-1
-1.97586E-1,2.42958E-1
-1.90856E-1,2.44804E-1
-1.84036E-1,2.46246E-1
-1.77261E-1,2.47810E-1
-1.70806E-1,2.49092E-1
-1.64428E-1,2.50442E-1
-1.57760E-1,2.51876E-1
-1.51382E-1,2.53067E-1
-1.44805E-1,2.54211E-1
-1.38488E-1,2.55065E-1
-1.32492E-1,2.55828E-1
-1.26449E-1,2.56500E-1
-1.20300E-1,2.57278E-1
-1.14105E-1,2.57766E-1
-1.08337E-1,2.58255E-1
-1.02157E-1,2.58590E-1
-9.67102E-2,2.58651E-1
-9.09423E-2,2.58590E-1
-8.50219E-2,2.58468E-1
-7.94372E-2,2.58331E-1
-7.35168E-2,2.57949E-1
-6.78710E-2,2.57507E-1
-6.19354E-2,2.57019E-1
-5.63659E-2,2.56500E-1
-5.10253E-2,2.55340E-1
-4.49523E-2,2.54730E-1
-3.90167E-2,2.53723E-1
-3.35235E-2,2.52548E-1
-2.76489E-2,2.51602E-1
-2.14843E-2,2.50473E-1
-1.58615E-2,2.49351E-1
-1.00708E-2,2.48046E-1
-4.51660E-3,2.46681E-1
0.01304E-1,2.45689E-1
0.06996E-1,2.44354E-1
0.12596E-1,2.43141E-1
0.18310E-1,2.41630E-1
0.23994E-1,2.40684E-1
0.29327E-1,2.39669E-1
0.35217E-1,2.38174E-1
0.40451E-1,2.37060E-1
0.45784E-1,2.35893E-1
0.50964E-1,2.34703E-1
0.55992E-1,2.33886E-1
0.61019E-1,2.32124E-1
0.65933E-1,2.30819E-1
0.70938E-1,2.29522E-1
0.75065E-1,2.28141E-1
0.79666E-1,2.26577E-1
0.84190E-1,2.25097E-1
0.88531E-1,2.23701E-1
0.92712E-1,2.21702E-1
0.96969E-1,2.20146E-1
1.01303E-1,2.18032E-1
1.05079E-1,2.16323E-1
1.09268E-1,2.14538E-1
1.13189E-1,2.12219E-1
1.17248E-1,2.10289E-1
1.21322E-1,2.07908E-1
1.24969E-1,2.05612E-1
1.28982E-1,2.03155E-1
1.33194E-1,2.00828E-1
1.36985E-1,1.98181E-1
1.40953E-1,1.95983E-1
1.44729E-1,1.93458E-1
1.48750E-1,1.90933E-1
1.52862E-1,1.88522E-1
1.56639E-1,1.86012E-1
1.60614E-1,1.83609E-1
1.64627E-1,1.81106E-1
1.68441E-1,1.78810E-1
1.72637E-1,1.76559E-1
1.76651E-1,1.74133E-1
1.80206E-1,1.71821E-1
1.83952E-1,1.70158E-1
1.87561E-1,1.67869E-1
1.90811E-1,1.65626E-1
1.94236E-1,1.63353E-1
1.97784E-1,1.61636E-1
2.00996E-1,1.59584E-1
2.03987E-1,1.57508E-1
2.07206E-1,1.55555E-1
2.09762E-1,1.53640E-1
2.12585E-1,1.51550E-1
2.15332E-1,1.49322E-1
2.17796E-1,1.47117E-1
2.20382E-1,1.45080E-1
2.22526E-1,1.43051E-1
2.24945E-1,1.40869E-1
2.27088E-1,1.38427E-1
2.28958E-1,1.35833E-1
2.31163E-1,1.33438E-1
2.33024E-1,1.30943E-1
2.35267E-1,1.28601E-1
2.37052E-1,1.25625E-1
2.38838E-1,1.23222E-1
2.40890E-1,1.20391E-1
2.42919E-1,1.17324E-1
2.44949E-1,1.14837E-1
2.47085E-1,1.11816E-1
2.48809E-1,1.08993E-1
2.50778E-1,1.06140E-1
2.53082E-1,1.03073E-1
2.55401E-1,1.00219E-1
2.57568E-1,0.97412E-1
2.59643E-1,0.94787E-1
2.61581E-1,0.92117E-1
2.64053E-1,0.89386E-1
2.66006E-1,0.86685E-1
2.68158E-1,0.84320E-1
2.70095E-1,0.81893E-1
2.72155E-1,0.79605E-1
2.74612E-1,0.76843E-1
2.76321E-1,0.75149E-1
2.78106E-1,0.73013E-1
2.80044E-1,0.70724E-1
2.81692E-1,0.68557E-1
2.83065E-1,0.66803E-1
2.84606E-1,0.64834E-1
2.85919E-1,0.62866E-1
2.87338E-1,0.60852E-1
2.88177E-1,0.5896E-1
2.89199E-1,0.569E-1
2.90237E-1,0.54855E-1
2.90847E-1,0.52978E-1
2.91503E-1,0.51010E-1
2.92205E-1,0.48889E-1
2.92846E-1,0.46630E-1
2.93304E-1,0.44372E-1
2.93823E-1,0.42236E-1
2.94555E-1,0.39856E-1
2.94799E-1,0.37475E-1
2.95227E-1,0.34606E-1
2.95608E-1,0.32180E-1
2.96035E-1,0.29678E-1
2.96524E-1,0.26901E-1
2.96981E-1,0.24139E-1
2.97546E-1,0.21362E-1
2.98080E-1,0.18753E-1
2.98385E-1,0.15914E-1
2.99148E-1,0.13366E-1
2.99591E-1,0.10498E-1
3.00293E-1,0.07659E-1
3.01269E-1,0.04943E-1
3.01574E-1,0.02533E-1
3.02703E-1,0.00030E-1
3.03375E-1,-2.65502E-3
3.04153E-1,-5.20324E-3
3.05282E-1,-7.33947E-3
3.05938E-1,-9.84191E-3
3.06457E-1,-1.20391E-2
3.07281E-1,-1.43737E-2
3.08029E-1,-1.65557E-2
3.08425E-1,-1.83258E-2
3.09005E-1,-2.02789E-2
3.09585E-1,-2.22320E-2
3.09936E-1,-2.43225E-2
3.10485E-1,-2.60009E-2
3.10668E-1,-2.78015E-2
3.10760E-1,-2.96020E-2
3.10791E-1,-3.16162E-2
3.11035E-1,-3.34777E-2
3.11035E-1,-3.52172E-2
3.10775E-1,-3.73382E-2
3.10638E-1,-3.90167E-2
3.10440E-1,-4.11377E-2
3.10302E-1,-4.31518E-2
3.09845E-1,-4.50286E-2
3.09494E-1,-4.74243E-2
3.09143E-1,-4.95147E-2
3.08868E-1,-5.18035E-2
3.08502E-1,-5.44891E-2
3.08258E-1,-5.63964E-2
3.07861E-1,-5.88684E-2
3.07556E-1,-6.11572E-2
3.07281E-1,-6.38427E-2
3.07098E-1,-6.61010E-2
3.07159E-1,-6.84814E-2
3.07037E-1,-7.09686E-2
3.07174E-1,-7.36999E-2
3.07312E-1,-7.59124E-2
3.07220E-1,-7.84149E-2
3.07479E-1,-8.07800E-2
3.07586E-1,-8.25958E-2
3.07907E-1,-8.51135E-2
3.08197E-1,-8.72497E-2
3.08548E-1,-8.92334E-2
3.08624E-1,-9.11254E-2
3.08807E-1,-9.31701E-2
3.09173E-1,-9.49401E-2
3.09692E-1,-9.64355E-2
3.09539E-1,-9.81445E-2
3.10028E-1,-9.95483E-2
3.09783E-1,-1.00769E-1
3.09661E-1,-1.02249E-1
3.10073E-1,-1.03866E-1
3.09524E-1,-1.04904E-1
3.09600E-1,-1.06491E-1
3.09066E-1,-1.07772E-1
3.08715E-1,-1.08779E-1
3.07968E-1,-1.10046E-1
3.07434E-1,-1.11633E-1
3.06793E-1,-1.12945E-1
3.05755E-1,-1.14532E-1
3.04931E-1,-1.15753E-1
3.04229E-1,-1.17248E-1
3.03314E-1,-1.18743E-1
3.02551E-1,-1.20422E-1
3.01422E-1,-1.22406E-1
3.00491E-1,-1.24420E-1
2.99789E-1,-1.26022E-1
2.99072E-1,-1.27944E-1
2.98416E-1,-1.30050E-1
2.97592E-1,-1.32080E-1
2.96859E-1,-1.34323E-1
2.96264E-1,-1.36123E-1
2.96066E-1,-1.38366E-1
2.95486E-1,-1.40411E-1
2.95440E-1,-1.42425E-1
2.95013E-1,-1.44348E-1
2.94982E-1,-1.46331E-1
2.95074E-1,-1.47918E-1
2.95257E-1,-1.49749E-1
2.95227E-1,-1.51428E-1
2.95227E-1,-1.52893E-1
2.95211E-1,-1.54556E-1
2.95501E-1,-1.55899E-1
2.95547E-1,-1.56967E-1
2.95806E-1,-1.58035E-1
2.95852E-1,-1.59042E-1
2.95639E-1,-1.5979E-1
2.95455E-1,-1.60476E-1
2.95517E-1,-1.61087E-1
2.94906E-1,-1.61560E-1
2.94250E-1,-1.62200E-1
2.93609E-1,-1.63055E-1
2.93029E-1,-1.63391E-1
2.91961E-1,-1.63574E-1
2.90985E-1,-1.64215E-1
2.90252E-1,-1.64642E-1
2.89001E-1,-1.65679E-1
2.87704E-1,-1.66381E-1
2.86346E-1,-1.67129E-1
2.85034E-1,-1.68212E-1
2.83676E-1,-1.69174E-1
2.81997E-1,-1.70242E-1
2.80761E-1,-1.71676E-1
2.79098E-1,-1.72851E-1
2.77938E-1,-1.74240E-1
2.76428E-1,-1.75781E-1
2.75238E-1,-1.77490E-1
2.73925E-1,-1.78833E-1
2.72644E-1,-1.80786E-1
2.71881E-1,-1.82525E-1
2.71514E-1,-1.84356E-1
2.70355E-1,-1.85852E-1
2.69714E-1,-1.87408E-1
2.69226E-1,-1.89147E-1
2.68951E-1,-1.90597E-1
2.68432E-1,-1.92016E-1
2.68402E-1,-1.93542E-1
2.68356E-1,-1.94641E-1
2.6828E-1,-1.95770E-1
2.68539E-1,-1.96853E-1
2.67868E-1,-1.97631E-1
2.67761E-1,-1.98333E-1
2.67791E-1,-1.98791E-1
2.67303E-1,-1.99249E-1
2.66967E-1,-1.99035E-1
2.66662E-1,-1.99462E-1
2.66235E-1,-1.99554E-1
2.65457E-1,-1.99462E-1
2.64862E-1,-1.99523E-1
2.63412E-1,-1.99234E-1
2.62664E-1,-1.99386E-1
2.61444E-1,-1.99188E-1
2.59841E-1,-1.99249E-1
2.58239E-1,-1.99218E-1
2.56942E-1,-1.99554E-1
2.54959E-1,-1.99707E-1
2.53173E-1,-2.00103E-1
2.51190E-1,-2.00561E-1
2.49298E-1,-2.01324E-1
2.47467E-1,-2.01934E-1
2.45880E-1,-2.02758E-1
2.44140E-1,-2.03765E-1
2.42218E-1,-2.04925E-1
2.40692E-1,-2.05947E-1
2.39196E-1,-2.07504E-1
2.37487E-1,-2.08679E-1
2.36465E-1,-2.10281E-1
2.35565E-1,-2.11456E-1
2.34314E-1,-2.13028E-1
2.33398E-1,-2.14202E-1
2.32696E-1,-2.15637E-1
2.31735E-1,-2.16476E-1
2.31323E-1,-2.18139E-1
2.31018E-1,-2.18658E-1
2.30804E-1,-2.19543E-1
2.30346E-1,-2.20367E-1
2.30255E-1,-2.21099E-1
2.30011E-1,-2.21344E-1
2.29736E-1,-2.21313E-1
2.29339E-1,-2.21778E-1
2.28912E-1,-2.21511E-1
2.28393E-1,-2.21771E-1
2.28088E-1,-2.21176E-1
2.27356E-1,-2.20886E-1
2.26409E-1,-2.20413E-1
2.25189E-1,-2.19970E-1
2.24060E-1,-2.19284E-1
2.22900E-1,-2.18917E-1
2.21084E-1,-2.18414E-1
2.19665E-1,-2.17956E-1
2.18017E-1,-2.17376E-1
2.15942E-1,-2.17315E-1
2.14202E-1,-2.17071E-1
2.12005E-1,-2.17163E-1
2.0961E-1,-2.17315E-1
2.08145E-1,-2.17468E-1
2.05978E-1,-2.17727E-1
2.04025E-1,-2.18551E-1
2.01828E-1,-2.19131E-1
1.99920E-1,-2.20062E-1
1.98288E-1,-2.20916E-1
1.96792E-1,-2.22015E-1
1.95114E-1,-2.22824E-1
1.93725E-1,-2.23999E-1
1.92749E-1,-2.24853E-1
1.91497E-1,-2.25952E-1
1.90826E-1,-2.26745E-1
1.90124E-1,-2.27966E-1
1.89727E-1,-2.28363E-1
1.89392E-1,-2.29553E-1
1.88919E-1,-2.30117E-1
1.88720E-1,-2.30606E-1
1.88736E-1,-2.30743E-1
1.88522E-1,-2.30865E-1
1.88629E-1,-2.30835E-1
1.88568E-1,-2.30651E-1
1.88217E-1,-2.30316E-1
1.87835E-1,-2.29751E-1
1.87408E-1,-2.28668E-1
1.86813E-1,-2.28134E-1
1.86340E-1,-2.27203E-1
1.85668E-1,-2.26257E-1
1.84783E-1,-2.24853E-1
1.8396E-1,-2.23999E-1
1.82495E-1,-2.22717E-1
1.81198E-1,-2.21694E-1
1.79519E-1,-2.20382E-1
1.78047E-1,-2.19787E-1
1.76437E-1,-2.18719E-1
1.74636E-1,-2.18185E-1
1.72531E-1,-2.17651E-1
1.70394E-1,-2.16964E-1
1.68243E-1,-2.16507E-1
1.66336E-1,-2.16659E-1
1.64154E-1,-2.16568E-1
1.61865E-1,-2.16781E-1
1.60400E-1,-2.17086E-1
1.58599E-1,-2.17041E-1
1.56890E-1,-2.17590E-1
1.55532E-1,-2.17926E-1
1.54205E-1,-2.18551E-1
1.52954E-1,-2.19665E-1
1.52023E-1,-2.19955E-1
1.51092E-1,-2.20718E-1
