CITIFILE A.01.00
#NA VERSION HP8753D.06.12
NAME DATA
VAR FREQ MAG 1601
DATA S[1,1] RI
SEG_LIST_BEGIN
SEG 50000000 250000000 1601
SEG_LIST_END
BEGIN
9.93530E-1,-9.51538E-2
9.93530E-1,-9.57031E-2
9.93164E-1,-9.58862E-2
9.93347E-1,-9.63745E-2
9.92981E-1,-9.67407E-2
9.93347E-1,-9.71679E-2
9.93713E-1,-9.72595E-2
9.93347E-1,-9.77783E-2
9.93469E-1,-9.74731E-2
9.93286E-1,-9.86328E-2
9.93835E-1,-9.84497E-2
9.93896E-1,-9.88769E-2
9.94079E-1,-9.92431E-2
9.94445E-1,-9.92126E-2
9.94171E-1,-9.97314E-2
9.94110E-1,-9.96704E-2
9.94018E-1,-9.96093E-2
9.94201E-1,-9.97924E-2
9.94323E-1,-9.97924E-2
9.94201E-1,-9.96704E-2
9.93774E-1,-1.00158E-1
9.93713E-1,-1.00219E-1
9.93682E-1,-1.00189E-1
9.93530E-1,-1.00524E-1
9.93896E-1,-1.00647E-1
9.93835E-1,-1.00891E-1
9.93591E-1,-1.00952E-1
9.93530E-1,-1.01318E-1
9.93408E-1,-1.01501E-1
9.93377E-1,-1.01623E-1
9.93286E-1,-1.01989E-1
9.92889E-1,-1.02356E-1
9.93164E-1,-1.02661E-1
9.92675E-1,-1.02966E-1
9.92736E-1,-1.03088E-1
9.92370E-1,-1.03515E-1
9.92431E-1,-1.03942E-1
9.92492E-1,-1.04309E-1
9.92889E-1,-1.04614E-1
9.92492E-1,-1.04919E-1
9.92431E-1,-1.05407E-1
9.92492E-1,-1.05407E-1
9.92675E-1,-1.05896E-1
9.92553E-1,-1.06628E-1
9.92614E-1,-1.06933E-1
9.92523E-1,-1.07177E-1
9.92981E-1,-1.07421E-1
9.92919E-1,-1.07635E-1
9.92797E-1,-1.07910E-1
9.92797E-1,-1.07971E-1
9.93042E-1,-1.08337E-1
9.92858E-1,-1.08337E-1
9.92492E-1,-1.08764E-1
9.92462E-1,-1.08734E-1
9.92767E-1,-1.09161E-1
9.93103E-1,-1.09008E-1
9.92736E-1,-1.09130E-1
9.92736E-1,-1.09680E-1
9.92553E-1,-1.09741E-1
9.93225E-1,-1.09924E-1
9.92919E-1,-1.10412E-1
9.93042E-1,-1.10290E-1
9.92706E-1,-1.10656E-1
9.92858E-1,-1.11358E-1
9.92858E-1,-1.11267E-1
9.92553E-1,-1.11450E-1
9.92614E-1,-1.11816E-1
9.92309E-1,-1.11511E-1
9.92187E-1,-1.11755E-1
9.92797E-1,-1.12304E-1
9.92340E-1,-1.12213E-1
9.92431E-1,-1.12854E-1
9.92553E-1,-1.12731E-1
9.92736E-1,-1.13281E-1
9.92614E-1,-1.13281E-1
9.92797E-1,-1.13769E-1
9.92981E-1,-1.13678E-1
9.92706E-1,-1.14074E-1
9.92736E-1,-1.14013E-1
9.92675E-1,-1.14471E-1
9.92492E-1,-1.14257E-1
9.92187E-1,-1.14502E-1
9.92126E-1,-1.14929E-1
9.92309E-1,-1.15051E-1
9.91699E-1,-1.14990E-1
9.92004E-1,-1.15325E-1
9.92095E-1,-1.15539E-1
9.91638E-1,-1.15722E-1
9.91821E-1,-1.16027E-1
9.91882E-1,-1.16210E-1
9.91577E-1,-1.16699E-1
9.91577E-1,-1.17248E-1
9.91546E-1,-1.17523E-1
9.91394E-1,-1.17675E-1
9.91424E-1,-1.18103E-1
9.91485E-1,-1.17858E-1
9.91149E-1,-1.18835E-1
9.91088E-1,-1.18957E-1
9.91272E-1,-1.19506E-1
9.91149E-1,-1.19628E-1
9.91210E-1,-1.19873E-1
9.91516E-1,-1.20361E-1
9.91333E-1,-1.20513E-1
9.91210E-1,-1.21032E-1
9.91516E-1,-1.21032E-1
9.91577E-1,-1.21398E-1
9.91699E-1,-1.21765E-1
9.91882E-1,-1.21704E-1
9.91790E-1,-1.22131E-1
9.91973E-1,-1.22650E-1
9.92034E-1,-1.22497E-1
9.91973E-1,-1.22345E-1
9.92248E-1,-1.22619E-1
9.92126E-1,-1.22680E-1
9.91821E-1,-1.23046E-1
9.92004E-1,-1.22741E-1
9.91943E-1,-1.22802E-1
9.91882E-1,-1.23077E-1
9.92004E-1,-1.23413E-1
9.91760E-1,-1.23168E-1
9.91821E-1,-1.23474E-1
9.91760E-1,-1.23657E-1
9.91516E-1,-1.23840E-1
9.91638E-1,-1.24023E-1
9.91516E-1,-1.24145E-1
9.91363E-1,-1.24511E-1
9.91272E-1,-1.24359E-1
9.91119E-1,-1.24755E-1
9.91149E-1,-1.25E-1
9.90844E-1,-1.25183E-1
9.90722E-1,-1.25244E-1
9.90966E-1,-1.25549E-1
9.90478E-1,-1.25915E-1
9.90509E-1,-1.26037E-1
9.90570E-1,-1.26251E-1
9.90539E-1,-1.26220E-1
9.90417E-1,-1.26831E-1
9.90295E-1,-1.27258E-1
9.90234E-1,-1.27624E-1
9.90478E-1,-1.27685E-1
9.89563E-1,-1.28082E-1
9.89959E-1,-1.28631E-1
9.90112E-1,-1.28784E-1
9.89563E-1,-1.28967E-1
9.89685E-1,-1.29455E-1
9.89379E-1,-1.29455E-1
9.89379E-1,-1.29821E-1
9.89318E-1,-1.30065E-1
9.88952E-1,-1.30432E-1
9.89227E-1,-1.31042E-1
9.89074E-1,-1.31347E-1
9.89013E-1,-1.31652E-1
9.89196E-1,-1.31897E-1
9.88952E-1,-1.32507E-1
9.88952E-1,-1.32812E-1
9.89196E-1,-1.33361E-1
9.88952E-1,-1.33544E-1
9.88861E-1,-1.33850E-1
9.89196E-1,-1.34185E-1
9.89196E-1,-1.34674E-1
9.89196E-1,-1.34704E-1
9.89440E-1,-1.35009E-1
9.89379E-1,-1.35192E-1
9.89685E-1,-1.35376E-1
9.89746E-1,-1.35559E-1
9.89837E-1,-1.35803E-1
9.90478E-1,-1.35925E-1
9.90478E-1,-1.36169E-1
9.90356E-1,-1.36352E-1
9.90478E-1,-1.36169E-1
9.90783E-1,-1.36413E-1
9.90814E-1,-1.36322E-1
9.90509E-1,-1.36505E-1
9.90844E-1,-1.36261E-1
9.90631E-1,-1.36291E-1
9.90753E-1,-1.36291E-1
9.90112E-1,-1.36230E-1
9.90112E-1,-1.36291E-1
9.90112E-1,-1.36230E-1
9.89807E-1,-1.36474E-1
9.89837E-1,-1.36474E-1
9.89471E-1,-1.36566E-1
9.89227E-1,-1.36749E-1
9.88708E-1,-1.36901E-1
9.88586E-1,-1.37207E-1
9.88037E-1,-1.37573E-1
9.88159E-1,-1.38122E-1
9.87731E-1,-1.38977E-1
9.87548E-1,-1.39160E-1
9.87274E-1,-1.39312E-1
9.87274E-1,-1.40014E-1
9.86938E-1,-1.40625E-1
9.86999E-1,-1.40869E-1
9.87182E-1,-1.41174E-1
9.86999E-1,-1.42089E-1
9.86938E-1,-1.42150E-1
9.86938E-1,-1.42852E-1
9.87426E-1,-1.43249E-1
9.87365E-1,-1.43707E-1
9.87548E-1,-1.44287E-1
9.87487E-1,-1.44531E-1
9.87976E-1,-1.44958E-1
9.88037E-1,-1.44958E-1
9.88067E-1,-1.45477E-1
9.88342E-1,-1.45782E-1
9.88555E-1,-1.45690E-1
9.88342E-1,-1.45446E-1
9.88647E-1,-1.45813E-1
9.88708E-1,-1.46057E-1
9.89196E-1,-1.46118E-1
9.89013E-1,-1.45874E-1
9.89196E-1,-1.45446E-1
9.89135E-1,-1.45782E-1
9.89318E-1,-1.45874E-1
9.89502E-1,-1.45538E-1
9.89257E-1,-1.45874E-1
9.88830E-1,-1.45690E-1
9.89013E-1,-1.46057E-1
9.88830E-1,-1.46484E-1
9.89044E-1,-1.45965E-1
9.88647E-1,-1.46514E-1
9.88342E-1,-1.46301E-1
9.88037E-1,-1.46606E-1
9.87854E-1,-1.46362E-1
9.87731E-1,-1.46911E-1
9.87609E-1,-1.47277E-1
9.87304E-1,-1.47460E-1
9.87365E-1,-1.47583E-1
9.87365E-1,-1.47979E-1
9.86969E-1,-1.48529E-1
9.87182E-1,-1.48925E-1
9.86877E-1,-1.49108E-1
9.86511E-1,-1.49414E-1
9.86633E-1,-1.49780E-1
9.86389E-1,-1.50207E-1
9.86541E-1,-1.50878E-1
9.86633E-1,-1.50787E-1
9.86328E-1,-1.51245E-1
9.86297E-1,-1.51275E-1
9.86358E-1,-1.52038E-1
9.86145E-1,-1.51916E-1
9.86267E-1,-1.52282E-1
9.86328E-1,-1.52343E-1
9.86328E-1,-1.52832E-1
9.86175E-1,-1.53289E-1
9.86572E-1,-1.53259E-1
9.86419E-1,-1.53717E-1
9.86267E-1,-1.54296E-1
9.86328E-1,-1.53991E-1
9.86267E-1,-1.54663E-1
9.86267E-1,-1.54907E-1
9.86297E-1,-1.55365E-1
9.86175E-1,-1.55212E-1
9.86328E-1,-1.55212E-1
9.86358E-1,-1.55853E-1
9.86022E-1,-1.55883E-1
9.86022E-1,-1.56005E-1
9.86206E-1,-1.56311E-1
9.85900E-1,-1.56433E-1
9.86145E-1,-1.56555E-1
9.86053E-1,-1.56433E-1
9.85687E-1,-1.57287E-1
9.86145E-1,-1.57318E-1
9.86389E-1,-1.57409E-1
9.86145E-1,-1.57409E-1
9.85961E-1,-1.5802E-1
9.86450E-1,-1.58142E-1
9.85992E-1,-1.58325E-1
9.86022E-1,-1.58325E-1
9.85687E-1,-1.58630E-1
9.85321E-1,-1.58935E-1
9.85321E-1,-1.59027E-1
9.85351E-1,-1.58996E-1
9.85229E-1,-1.59545E-1
9.85534E-1,-1.59545E-1
9.85199E-1,-1.60095E-1
9.85107E-1,-1.59973E-1
9.85046E-1,-1.60247E-1
9.84924E-1,-1.60766E-1
9.84924E-1,-1.60766E-1
9.84741E-1,-1.61499E-1
9.84619E-1,-1.61987E-1
9.84191E-1,-1.62231E-1
9.84436E-1,-1.62475E-1
9.84527E-1,-1.62780E-1
9.84619E-1,-1.62933E-1
9.84832E-1,-1.63360E-1
9.84619E-1,-1.63147E-1
9.84436E-1,-1.63757E-1
9.84802E-1,-1.64062E-1
9.84741E-1,-1.64428E-1
9.84771E-1,-1.64581E-1
9.85046E-1,-1.64886E-1
9.85076E-1,-1.65100E-1
9.85229E-1,-1.65405E-1
9.84924E-1,-1.65588E-1
9.85412E-1,-1.65466E-1
9.85351E-1,-1.65893E-1
9.85534E-1,-1.66046E-1
9.85473E-1,-1.66107E-1
9.85473E-1,-1.66137E-1
9.85321E-1,-1.66351E-1
9.85290E-1,-1.66137E-1
9.85565E-1,-1.66473E-1
9.85168E-1,-1.66503E-1
9.85107E-1,-1.66320E-1
9.84741E-1,-1.66564E-1
9.85015E-1,-1.66748E-1
9.85137E-1,-1.66870E-1
9.84802E-1,-1.66961E-1
9.84680E-1,-1.67205E-1
9.84375E-1,-1.67480E-1
9.84436E-1,-1.67846E-1
9.84191E-1,-1.67907E-1
9.83917E-1,-1.68762E-1
9.83978E-1,-1.68487E-1
9.83886E-1,-1.68792E-1
9.83520E-1,-1.69311E-1
9.83551E-1,-1.69738E-1
9.83520E-1,-1.69738E-1
9.83459E-1,-1.70105E-1
9.83459E-1,-1.70532E-1
9.83276E-1,-1.70654E-1
9.83520E-1,-1.70837E-1
9.83764E-1,-1.71142E-1
9.83398E-1,-1.71447E-1
9.83581E-1,-1.71508E-1
9.83825E-1,-1.71936E-1
9.83520E-1,-1.72363E-1
9.83337E-1,-1.71997E-1
9.83764E-1,-1.72821E-1
9.83764E-1,-1.73004E-1
9.83612E-1,-1.73004E-1
9.83795E-1,-1.73156E-1
9.83978E-1,-1.73065E-1
9.83642E-1,-1.72973E-1
9.83459E-1,-1.73217E-1
9.83398E-1,-1.73400E-1
9.83581E-1,-1.73339E-1
9.83337E-1,-1.73492E-1
9.82818E-1,-1.73828E-1
9.83429E-1,-1.74224E-1
9.83154E-1,-1.74255E-1
9.82971E-1,-1.74621E-1
9.82727E-1,-1.74804E-1
9.82421E-1,-1.75109E-1
9.82208E-1,-1.75109E-1
9.82269E-1,-1.75323E-1
9.82299E-1,-1.75750E-1
9.81811E-1,-1.75842E-1
9.81628E-1,-1.76269E-1
9.81750E-1,-1.76330E-1
9.81567E-1,-1.76696E-1
9.81506E-1,-1.77368E-1
9.81445E-1,-1.77368E-1
9.81445E-1,-1.77368E-1
9.81353E-1,-1.77825E-1
9.81292E-1,-1.78588E-1
9.81231E-1,-1.78985E-1
9.81262E-1,-1.79199E-1
9.81018E-1,-1.79870E-1
9.81018E-1,-1.80023E-1
9.80926E-1,-1.80114E-1
9.80804E-1,-1.80084E-1
9.81109E-1,-1.80877E-1
9.81323E-1,-1.80786E-1
9.81018E-1,-1.81121E-1
9.80926E-1,-1.81366E-1
9.80896E-1,-1.81823E-1
9.81018E-1,-1.82006E-1
9.80773E-1,-1.82189E-1
9.81109E-1,-1.82342E-1
9.80651E-1,-1.82769E-1
9.80835E-1,-1.82830E-1
9.80468E-1,-1.83227E-1
9.80590E-1,-1.83654E-1
9.80651E-1,-1.84082E-1
9.80773E-1,-1.84387E-1
9.80712E-1,-1.84539E-1
9.80682E-1,-1.84631E-1
9.80621E-1,-1.85272E-1
9.80896E-1,-1.85180E-1
9.80590E-1,-1.85394E-1
9.80712E-1,-1.85546E-1
9.80712E-1,-1.8573E-1
9.81018E-1,-1.8573E-1
9.80957E-1,-1.86157E-1
9.80987E-1,-1.86187E-1
9.81170E-1,-1.86096E-1
9.81536E-1,-1.86340E-1
9.81475E-1,-1.86737E-1
9.81201E-1,-1.86706E-1
9.81628E-1,-1.86889E-1
9.81231E-1,-1.87225E-1
9.81201E-1,-1.86950E-1
9.81323E-1,-1.87225E-1
9.81384E-1,-1.87103E-1
9.80957E-1,-1.87286E-1
9.81262E-1,-1.86828E-1
9.80743E-1,-1.87072E-1
9.80896E-1,-1.87133E-1
9.80407E-1,-1.87255E-1
9.80255E-1,-1.87744E-1
9.79827E-1,-1.87652E-1
9.79827E-1,-1.87988E-1
9.79644E-1,-1.88018E-1
9.79339E-1,-1.88873E-1
9.79187E-1,-1.89086E-1
9.79064E-1,-1.8927E-1
9.78637E-1,-1.89941E-1
9.78607E-1,-1.90216E-1
9.78515E-1,-1.90551E-1
9.78088E-1,-1.90765E-1
9.77935E-1,-1.91253E-1
9.77935E-1,-1.91711E-1
9.77905E-1,-1.92138E-1
9.78210E-1,-1.92565E-1
9.78088E-1,-1.93176E-1
9.78027E-1,-1.93420E-1
9.78546E-1,-1.93420E-1
9.78118E-1,-1.93969E-1
9.78363E-1,-1.94366E-1
9.78179E-1,-1.94763E-1
9.78912E-1,-1.95220E-1
9.78729E-1,-1.95312E-1
9.78851E-1,-1.95129E-1
9.78790E-1,-1.95587E-1
9.79461E-1,-1.95220E-1
9.79553E-1,-1.95709E-1
9.79339E-1,-1.95434E-1
9.79126E-1,-1.95709E-1
9.79675E-1,-1.95556E-1
9.79492E-1,-1.95800E-1
9.79309E-1,-1.95495E-1
9.79370E-1,-1.95831E-1
9.79278E-1,-1.95983E-1
9.79156E-1,-1.96075E-1
9.79064E-1,-1.96441E-1
9.78881E-1,-1.96014E-1
9.78759E-1,-1.96228E-1
9.78393E-1,-1.96350E-1
9.78393E-1,-1.96746E-1
9.77874E-1,-1.96624E-1
9.77844E-1,-1.96899E-1
9.77905E-1,-1.97235E-1
9.77630E-1,-1.97357E-1
9.77020E-1,-1.97418E-1
9.77050E-1,-1.97906E-1
9.76562E-1,-1.98425E-1
9.76318E-1,-1.98486E-1
9.76623E-1,-1.98791E-1
9.76104E-1,-1.99523E-1
9.75982E-1,-1.99859E-1
9.76135E-1,-2.00195E-1
9.76318E-1,-2.00744E-1
9.76257E-1,-2.00927E-1
9.75830E-1,-2.01171E-1
9.75891E-1,-2.01904E-1
9.75647E-1,-2.02331E-1
9.75524E-1,-2.02209E-1
9.75463E-1,-2.02209E-1
9.75402E-1,-2.02697E-1
9.75524E-1,-2.03430E-1
9.75555E-1,-2.03369E-1
9.75280E-1,-2.03979E-1
9.75341E-1,-2.04101E-1
9.75250E-1,-2.04467E-1
9.75128E-1,-2.04559E-1
9.75402E-1,-2.05505E-1
9.75555E-1,-2.05474E-1
9.75311E-1,-2.05871E-1
9.75219E-1,-2.06054E-1
9.75158E-1,-2.06298E-1
9.75036E-1,-2.06512E-1
9.75128E-1,-2.06970E-1
9.75128E-1,-2.07214E-1
9.75585E-1,-2.07336E-1
9.75158E-1,-2.07458E-1
9.75433E-1,-2.07763E-1
9.75616E-1,-2.08007E-1
9.75830E-1,-2.08129E-1
9.75616E-1,-2.08526E-1
9.75860E-1,-2.08587E-1
9.75952E-1,-2.08862E-1
9.76135E-1,-2.08984E-1
9.76135E-1,-2.08862E-1
9.76379E-1,-2.09289E-1
9.76257E-1,-2.09350E-1
9.76379E-1,-2.09289E-1
9.76562E-1,-2.09167E-1
9.76562E-1,-2.09228E-1
9.76684E-1,-2.09411E-1
9.76440E-1,-2.08801E-1
9.76318E-1,-2.08862E-1
9.76440E-1,-2.08618E-1
9.76440E-1,-2.08679E-1
9.76226E-1,-2.09289E-1
9.75860E-1,-2.08892E-1
9.75891E-1,-2.09045E-1
9.75311E-1,-2.08923E-1
9.75372E-1,-2.09167E-1
9.75097E-1,-2.09320E-1
9.74578E-1,-2.10022E-1
9.74243E-1,-2.10144E-1
9.74304E-1,-2.10083E-1
9.73602E-1,-2.10510E-1
9.73236E-1,-2.11059E-1
9.72808E-1,-2.11212E-1
9.72747E-1,-2.11608E-1
9.72747E-1,-2.12463E-1
9.72564E-1,-2.12829E-1
9.72168E-1,-2.13317E-1
9.72045E-1,-2.13989E-1
9.71984E-1,-2.14294E-1
9.72351E-1,-2.14660E-1
9.72045E-1,-2.15393E-1
9.71984E-1,-2.15698E-1
9.72045E-1,-2.15637E-1
9.7229E-1,-2.16674E-1
9.72106E-1,-2.17285E-1
9.72168E-1,-2.17224E-1
9.71984E-1,-2.17346E-1
9.72656E-1,-2.17590E-1
9.72595E-1,-2.18078E-1
9.72961E-1,-2.18261E-1
9.73205E-1,-2.18261E-1
9.73327E-1,-2.18627E-1
9.73205E-1,-2.18566E-1
9.73632E-1,-2.1875E-1
9.73999E-1,-2.18994E-1
9.74121E-1,-2.1875E-1
9.74365E-1,-2.18872E-1
9.73785E-1,-2.18933E-1
9.73907E-1,-2.18872E-1
9.73968E-1,-2.18902E-1
9.73815E-1,-2.18994E-1
9.73632E-1,-2.18933E-1
9.73663E-1,-2.19268E-1
9.73297E-1,-2.18902E-1
9.73327E-1,-2.19024E-1
9.73114E-1,-2.19024E-1
9.73144E-1,-2.19238E-1
9.72900E-1,-2.19238E-1
9.72351E-1,-2.19299E-1
9.72168E-1,-2.19482E-1
9.72168E-1,-2.20031E-1
9.71923E-1,-2.20275E-1
9.71801E-1,-2.20214E-1
9.71069E-1,-2.20947E-1
9.71313E-1,-2.21069E-1
9.71130E-1,-2.21435E-1
9.70642E-1,-2.21923E-1
9.70489E-1,-2.22534E-1
9.70092E-1,-2.22717E-1
9.70031E-1,-2.22839E-1
9.69726E-1,-2.23205E-1
9.69848E-1,-2.23999E-1
9.70031E-1,-2.23877E-1
9.69909E-1,-2.24243E-1
9.69787E-1,-2.24731E-1
9.69604E-1,-2.25280E-1
9.69909E-1,-2.25830E-1
9.69604E-1,-2.26440E-1
9.69665E-1,-2.26867E-1
9.69421E-1,-2.27050E-1
9.69665E-1,-2.27172E-1
9.69482E-1,-2.27356E-1
9.69574E-1,-2.28088E-1
9.69421E-1,-2.28302E-1
9.69604E-1,-2.28424E-1
9.69482E-1,-2.28729E-1
9.70092E-1,-2.28759E-1
9.70459E-1,-2.29064E-1
9.69970E-1,-2.29309E-1
9.70092E-1,-2.29187E-1
9.70397E-1,-2.29370E-1
9.70703E-1,-2.29431E-1
9.70397E-1,-2.29675E-1
9.70703E-1,-2.29736E-1
9.70825E-1,-2.30041E-1
9.70764E-1,-2.30285E-1
9.70947E-1,-2.30224E-1
9.70825E-1,-2.29736E-1
9.71130E-1,-2.29858E-1
9.70794E-1,-2.29888E-1
9.70642E-1,-2.30102E-1
9.70581E-1,-2.30407E-1
9.70825E-1,-2.30102E-1
9.7052E-1,-2.30285E-1
9.70336E-1,-2.30590E-1
9.70459E-1,-2.30285E-1
9.69665E-1,-2.30163E-1
9.69970E-1,-2.31018E-1
9.69848E-1,-2.30651E-1
9.69482E-1,-2.30773E-1
9.69177E-1,-2.31567E-1
9.69116E-1,-2.31567E-1
9.68994E-1,-2.31872E-1
9.68627E-1,-2.32116E-1
9.68139E-1,-2.32605E-1
9.68444E-1,-2.32910E-1
9.67834E-1,-2.33093E-1
9.67651E-1,-2.33337E-1
9.67773E-1,-2.33886E-1
9.67834E-1,-2.33703E-1
9.67590E-1,-2.34558E-1
9.67651E-1,-2.34680E-1
9.67651E-1,-2.35229E-1
9.67407E-1,-2.35717E-1
9.67468E-1,-2.36022E-1
9.67712E-1,-2.35778E-1
9.67590E-1,-2.36389E-1
9.67834E-1,-2.37060E-1
9.67773E-1,-2.37243E-1
9.67651E-1,-2.37304E-1
9.67712E-1,-2.37243E-1
9.67773E-1,-2.37579E-1
9.68261E-1,-2.37731E-1
9.67895E-1,-2.37304E-1
9.67834E-1,-2.37670E-1
9.67529E-1,-2.37915E-1
9.68078E-1,-2.37854E-1
9.68383E-1,-2.38342E-1
9.67834E-1,-2.38403E-1
9.67651E-1,-2.38220E-1
9.68017E-1,-2.38769E-1
9.67773E-1,-2.38586E-1
9.67834E-1,-2.39135E-1
9.67346E-1,-2.39196E-1
9.67102E-1,-2.39257E-1
9.6698E-1,-2.39135E-1
9.66796E-1,-2.39624E-1
9.66674E-1,-2.39990E-1
9.66308E-1,-2.39990E-1
9.66308E-1,-2.40417E-1
9.65820E-1,-2.40661E-1
9.65637E-1,-2.40844E-1
9.65637E-1,-2.41027E-1
9.65881E-1,-2.41272E-1
9.65698E-1,-2.41455E-1
9.65698E-1,-2.42126E-1
9.65637E-1,-2.42675E-1
9.65454E-1,-2.42797E-1
9.6521E-1,-2.43591E-1
9.64843E-1,-2.43225E-1
9.65087E-1,-2.43774E-1
9.65148E-1,-2.43591E-1
9.64904E-1,-2.44201E-1
9.64843E-1,-2.44445E-1
9.64782E-1,-2.44384E-1
9.65026E-1,-2.44628E-1
9.64660E-1,-2.45239E-1
9.64355E-1,-2.45178E-1
9.64538E-1,-2.45666E-1
9.64477E-1,-2.45788E-1
9.64050E-1,-2.45971E-1
9.63928E-1,-2.4646E-1
9.64416E-1,-2.46643E-1
9.64294E-1,-2.46887E-1
9.63989E-1,-2.47009E-1
9.63501E-1,-2.47314E-1
9.63684E-1,-2.47863E-1
9.63562E-1,-2.48168E-1
9.63501E-1,-2.4823E-1
9.63378E-1,-2.48535E-1
9.63562E-1,-2.49206E-1
9.63684E-1,-2.49206E-1
9.63317E-1,-2.49572E-1
9.63256E-1,-2.49877E-1
9.63562E-1,-2.50061E-1
9.63256E-1,-2.50549E-1
9.63378E-1,-2.50671E-1
9.63684E-1,-2.50854E-1
9.63501E-1,-2.51281E-1
9.63867E-1,-2.51403E-1
9.63623E-1,-2.51953E-1
9.63806E-1,-2.52197E-1
9.63684E-1,-2.51953E-1
9.63684E-1,-2.51831E-1
9.63928E-1,-2.52563E-1
9.63928E-1,-2.52380E-1
9.63623E-1,-2.52441E-1
9.63867E-1,-2.52319E-1
9.63073E-1,-2.52746E-1
9.63256E-1,-2.52868E-1
9.63684E-1,-2.52929E-1
9.63867E-1,-2.53051E-1
9.63745E-1,-2.52868E-1
9.63073E-1,-2.53051E-1
9.62707E-1,-2.53479E-1
9.63134E-1,-2.53295E-1
9.62463E-1,-2.53784E-1
9.62463E-1,-2.53723E-1
9.62341E-1,-2.54211E-1
9.62219E-1,-2.54150E-1
9.62036E-1,-2.54699E-1
9.61731E-1,-2.54638E-1
9.61547E-1,-2.55065E-1
9.61486E-1,-2.55310E-1
9.61608E-1,-2.55615E-1
9.61242E-1,-2.55859E-1
9.61059E-1,-2.56286E-1
9.61029E-1,-2.56652E-1
9.60693E-1,-2.57202E-1
9.60754E-1,-2.57385E-1
9.60754E-1,-2.57812E-1
9.60876E-1,-2.57995E-1
9.60815E-1,-2.58606E-1
9.60693E-1,-2.58789E-1
9.60632E-1,-2.59033E-1
9.60571E-1,-2.59399E-1
9.60388E-1,-2.59704E-1
9.60632E-1,-2.59887E-1
9.60815E-1,-2.60253E-1
9.60632E-1,-2.60009E-1
9.60632E-1,-2.59948E-1
9.60815E-1,-2.60498E-1
9.60937E-1,-2.60620E-1
9.61120E-1,-2.61047E-1
9.60815E-1,-2.60803E-1
9.60510E-1,-2.61108E-1
9.60937E-1,-2.61352E-1
9.60571E-1,-2.61596E-1
9.60510E-1,-2.62023E-1
9.60388E-1,-2.61901E-1
9.59960E-1,-2.61901E-1
9.59899E-1,-2.62207E-1
9.60083E-1,-2.62329E-1
9.59716E-1,-2.62573E-1
9.59411E-1,-2.62817E-1
9.59472E-1,-2.62695E-1
9.59411E-1,-2.63183E-1
9.59045E-1,-2.63488E-1
9.59045E-1,-2.63855E-1
9.58892E-1,-2.64007E-1
9.58679E-1,-2.64831E-1
9.58496E-1,-2.65075E-1
9.58190E-1,-2.65258E-1
9.58252E-1,-2.65258E-1
9.57885E-1,-2.65808E-1
9.57824E-1,-2.65991E-1
9.57763E-1,-2.66601E-1
9.57519E-1,-2.67089E-1
9.57611E-1,-2.67395E-1
9.57885E-1,-2.67700E-1
9.57763E-1,-2.67761E-1
9.57885E-1,-2.68066E-1
9.57946E-1,-2.68493E-1
9.57885E-1,-2.68798E-1
9.58252E-1,-2.69043E-1
9.58343E-1,-2.68981E-1
9.58313E-1,-2.69348E-1
9.58496E-1,-2.69531E-1
9.58557E-1,-2.70080E-1
9.58801E-1,-2.70019E-1
9.58862E-1,-2.70141E-1
9.58801E-1,-2.70141E-1
9.58801E-1,-2.70629E-1
9.58862E-1,-2.70202E-1
9.59137E-1,-2.70263E-1
9.59350E-1,-2.70446E-1
9.59167E-1,-2.70263E-1
9.58618E-1,-2.70141E-1
9.59228E-1,-2.70324E-1
9.58984E-1,-2.70446E-1
9.58923E-1,-2.70324E-1
9.58892E-1,-2.70507E-1
9.58984E-1,-2.70568E-1
9.58190E-1,-2.70446E-1
9.58068E-1,-2.70385E-1
9.57763E-1,-2.70629E-1
9.57092E-1,-2.70690E-1
9.56970E-1,-2.71301E-1
9.56787E-1,-2.71545E-1
9.56604E-1,-2.71850E-1
9.55993E-1,-2.71881E-1
9.55749E-1,-2.71606E-1
9.55749E-1,-2.72644E-1
9.54711E-1,-2.72583E-1
9.54711E-1,-2.73254E-1
9.54528E-1,-2.73925E-1
9.54223E-1,-2.74108E-1
9.53826E-1,-2.74627E-1
9.54101E-1,-2.75573E-1
9.54040E-1,-2.76062E-1
9.53491E-1,-2.76428E-1
9.53125E-1,-2.76977E-1
9.53125E-1,-2.77526E-1
9.53247E-1,-2.78015E-1
9.53186E-1,-2.78381E-1
9.53491E-1,-2.79113E-1
9.53949E-1,-2.79541E-1
9.53735E-1,-2.79785E-1
9.53979E-1,-2.80212E-1
9.54406E-1,-2.80761E-1
9.55078E-1,-2.80883E-1
9.55444E-1,-2.81127E-1
9.55627E-1,-2.81311E-1
9.55627E-1,-2.8125E-1
9.55993E-1,-2.81799E-1
9.56359E-1,-2.81311E-1
9.56665E-1,-2.81555E-1
9.56604E-1,-2.81555E-1
9.57092E-1,-2.80822E-1
9.56848E-1,-2.81311E-1
9.57336E-1,-2.80944E-1
9.56970E-1,-2.80700E-1
9.57244E-1,-2.80395E-1
9.57336E-1,-2.80212E-1
9.56726E-1,-2.80029E-1
9.56848E-1,-2.79602E-1
9.56543E-1,-2.79846E-1
9.56237E-1,-2.79296E-1
9.56359E-1,-2.79663E-1
9.56298E-1,-2.79357E-1
9.55688E-1,-2.79602E-1
9.55505E-1,-2.79846E-1
9.54650E-1,-2.80029E-1
9.54284E-1,-2.80334E-1
9.53796E-1,-2.80700E-1
9.53369E-1,-2.80944E-1
9.52941E-1,-2.81738E-1
9.52514E-1,-2.81494E-1
9.52117E-1,-2.82531E-1
9.51843E-1,-2.82348E-1
9.51660E-1,-2.83386E-1
9.51477E-1,-2.83813E-1
