CITIFILE A.01.00
#NA VERSION HP8753D.06.12
NAME DATA
VAR FREQ MAG 1601
DATA S[1,1] RI
SEG_LIST_BEGIN
SEG 50000000 250000000 1601
SEG_LIST_END
BEGIN
9.91272E-1,-9.36279E-2
9.91027E-1,-9.38720E-2
9.90966E-1,-9.42382E-2
9.90905E-1,-9.44824E-2
9.90783E-1,-9.49096E-2
9.90722E-1,-9.53369E-2
9.90875E-1,-9.53979E-2
9.90844E-1,-9.59472E-2
9.90844E-1,-9.61914E-2
9.90905E-1,-9.64965E-2
9.91088E-1,-9.67407E-2
9.91027E-1,-9.71679E-2
9.91210E-1,-9.74121E-2
9.91302E-1,-9.77478E-2
9.91333E-1,-9.80529E-2
9.91455E-1,-9.81445E-2
9.91455E-1,-9.82666E-2
9.91455E-1,-9.82666E-2
9.91516E-1,-9.83886E-2
9.91455E-1,-9.83886E-2
9.91394E-1,-9.86938E-2
9.91149E-1,-9.85717E-2
9.91333E-1,-9.87243E-2
9.91394E-1,-9.88769E-2
9.91149E-1,-9.89990E-2
9.91088E-1,-9.92431E-2
9.91027E-1,-9.94262E-2
9.91088E-1,-9.96704E-2
9.90905E-1,-9.98535E-2
9.90844E-1,-1.00067E-1
9.90661E-1,-1.00372E-1
9.90448E-1,-1.00677E-1
9.90356E-1,-1.00830E-1
9.90173E-1,-1.01196E-1
9.90173E-1,-1.01318E-1
9.90051E-1,-1.01684E-1
9.89990E-1,-1.01989E-1
9.89929E-1,-1.02294E-1
9.89837E-1,-1.02539E-1
9.89868E-1,-1.02966E-1
9.89929E-1,-1.03149E-1
9.89868E-1,-1.03515E-1
9.89868E-1,-1.03942E-1
9.89929E-1,-1.04309E-1
9.89929E-1,-1.04553E-1
9.89929E-1,-1.0495E-1
9.90081E-1,-1.05224E-1
9.90020E-1,-1.05407E-1
9.89807E-1,-1.05529E-1
9.89990E-1,-1.05773E-1
9.89807E-1,-1.06140E-1
9.89685E-1,-1.06201E-1
9.89685E-1,-1.06445E-1
9.89776E-1,-1.06781E-1
9.89654E-1,-1.06933E-1
9.89563E-1,-1.07238E-1
9.89440E-1,-1.07666E-1
9.89685E-1,-1.07971E-1
9.89502E-1,-1.08154E-1
9.89746E-1,-1.08520E-1
9.89624E-1,-1.08764E-1
9.89746E-1,-1.09222E-1
9.89624E-1,-1.09466E-1
9.89715E-1,-1.09710E-1
9.89685E-1,-1.09924E-1
9.89746E-1,-1.10229E-1
9.89807E-1,-1.10412E-1
9.89868E-1,-1.10534E-1
9.89990E-1,-1.10778E-1
9.90051E-1,-1.11053E-1
9.90203E-1,-1.11267E-1
9.90356E-1,-1.11389E-1
9.90539E-1,-1.11328E-1
9.90600E-1,-1.11633E-1
9.90661E-1,-1.11633E-1
9.90783E-1,-1.11755E-1
9.90814E-1,-1.11846E-1
9.90844E-1,-1.11816E-1
9.90844E-1,-1.11755E-1
9.90783E-1,-1.11969E-1
9.90722E-1,-1.11877E-1
9.90539E-1,-1.12060E-1
9.90356E-1,-1.11999E-1
9.90356E-1,-1.11877E-1
9.90112E-1,-1.12121E-1
9.89929E-1,-1.12274E-1
9.89868E-1,-1.12274E-1
9.89746E-1,-1.12548E-1
9.89502E-1,-1.12548E-1
9.89440E-1,-1.12976E-1
9.89196E-1,-1.13220E-1
9.88952E-1,-1.13586E-1
9.88861E-1,-1.14105E-1
9.88678E-1,-1.14349E-1
9.88555E-1,-1.14685E-1
9.88311E-1,-1.15081E-1
9.88159E-1,-1.15600E-1
9.88159E-1,-1.16027E-1
9.88159E-1,-1.16272E-1
9.88098E-1,-1.16699E-1
9.88220E-1,-1.17248E-1
9.88220E-1,-1.17523E-1
9.88250E-1,-1.17797E-1
9.88464E-1,-1.18225E-1
9.88525E-1,-1.18469E-1
9.88708E-1,-1.18713E-1
9.88708E-1,-1.19079E-1
9.89074E-1,-1.19384E-1
9.89135E-1,-1.19476E-1
9.89166E-1,-1.19659E-1
9.89227E-1,-1.19964E-1
9.89227E-1,-1.19812E-1
9.89379E-1,-1.19934E-1
9.89318E-1,-1.19873E-1
9.89257E-1,-1.19995E-1
9.89318E-1,-1.19934E-1
9.89318E-1,-1.20056E-1
9.89166E-1,-1.20056E-1
9.89074E-1,-1.20269E-1
9.89013E-1,-1.20361E-1
9.89013E-1,-1.20483E-1
9.88769E-1,-1.20788E-1
9.88647E-1,-1.20971E-1
9.88525E-1,-1.21154E-1
9.88281E-1,-1.21490E-1
9.88220E-1,-1.21734E-1
9.88067E-1,-1.21917E-1
9.87854E-1,-1.22345E-1
9.87731E-1,-1.22619E-1
9.87670E-1,-1.22863E-1
9.87487E-1,-1.23168E-1
9.87609E-1,-1.23535E-1
9.87609E-1,-1.23779E-1
9.87548E-1,-1.24084E-1
9.87518E-1,-1.24450E-1
9.87548E-1,-1.24755E-1
9.87670E-1,-1.25183E-1
9.87793E-1,-1.25488E-1
9.87670E-1,-1.25854E-1
9.87854E-1,-1.25976E-1
9.87915E-1,-1.26251E-1
9.88037E-1,-1.26525E-1
9.87915E-1,-1.26556E-1
9.87945E-1,-1.26647E-1
9.87793E-1,-1.26709E-1
9.87854E-1,-1.26831E-1
9.87793E-1,-1.27075E-1
9.87670E-1,-1.27258E-1
9.87670E-1,-1.27380E-1
9.87640E-1,-1.27441E-1
9.87518E-1,-1.27563E-1
9.87304E-1,-1.27868E-1
9.87243E-1,-1.28112E-1
9.87121E-1,-1.28418E-1
9.86999E-1,-1.28723E-1
9.86755E-1,-1.29089E-1
9.86663E-1,-1.29486E-1
9.86541E-1,-1.29699E-1
9.86480E-1,-1.30127E-1
9.86358E-1,-1.30493E-1
9.86267E-1,-1.30737E-1
9.86145E-1,-1.31164E-1
9.86267E-1,-1.31530E-1
9.86267E-1,-1.31774E-1
9.86297E-1,-1.32232E-1
9.86389E-1,-1.32537E-1
9.86511E-1,-1.32995E-1
9.86572E-1,-1.33239E-1
9.86816E-1,-1.33667E-1
9.86755E-1,-1.33972E-1
9.87121E-1,-1.34094E-1
9.87243E-1,-1.34368E-1
9.87274E-1,-1.34552E-1
9.87304E-1,-1.34521E-1
9.87457E-1,-1.34521E-1
9.87548E-1,-1.34552E-1
9.87548E-1,-1.34643E-1
9.87609E-1,-1.34704E-1
9.87487E-1,-1.34643E-1
9.87548E-1,-1.34765E-1
9.87701E-1,-1.34704E-1
9.87518E-1,-1.34979E-1
9.87335E-1,-1.34765E-1
9.87243E-1,-1.35009E-1
9.87121E-1,-1.35253E-1
9.87060E-1,-1.35314E-1
9.86816E-1,-1.35559E-1
9.86572E-1,-1.35803E-1
9.86358E-1,-1.36047E-1
9.86267E-1,-1.36261E-1
9.86022E-1,-1.36627E-1
9.85839E-1,-1.36840E-1
9.85717E-1,-1.37146E-1
9.85656E-1,-1.37512E-1
9.85351E-1,-1.37817E-1
9.85473E-1,-1.38122E-1
9.85382E-1,-1.38488E-1
9.85412E-1,-1.38946E-1
9.85443E-1,-1.39373E-1
9.85534E-1,-1.39587E-1
9.85595E-1,-1.40136E-1
9.85656E-1,-1.40319E-1
9.85717E-1,-1.40747E-1
9.85809E-1,-1.41082E-1
9.85748E-1,-1.41174E-1
9.85748E-1,-1.41326E-1
9.85961E-1,-1.41479E-1
9.86114E-1,-1.41632E-1
9.86206E-1,-1.41784E-1
9.86267E-1,-1.41845E-1
9.86206E-1,-1.41906E-1
9.86145E-1,-1.41967E-1
9.86236E-1,-1.42028E-1
9.86328E-1,-1.42211E-1
9.86267E-1,-1.42242E-1
9.86145E-1,-1.42334E-1
9.86267E-1,-1.42456E-1
9.86267E-1,-1.42700E-1
9.86084E-1,-1.42700E-1
9.85900E-1,-1.42944E-1
9.85778E-1,-1.43096E-1
9.85565E-1,-1.43219E-1
9.85504E-1,-1.43493E-1
9.85290E-1,-1.43615E-1
9.85168E-1,-1.43798E-1
9.85046E-1,-1.43920E-1
9.84924E-1,-1.44165E-1
9.84985E-1,-1.44470E-1
9.84649E-1,-1.44653E-1
9.84802E-1,-1.45080E-1
9.84680E-1,-1.45446E-1
9.84619E-1,-1.45507E-1
9.84497E-1,-1.46057E-1
9.84436E-1,-1.46179E-1
9.84497E-1,-1.46484E-1
9.84436E-1,-1.46911E-1
9.84375E-1,-1.46942E-1
9.84191E-1,-1.47094E-1
9.84130E-1,-1.47552E-1
9.84161E-1,-1.47674E-1
9.84191E-1,-1.47949E-1
9.84008E-1,-1.48132E-1
9.83886E-1,-1.48376E-1
9.83764E-1,-1.48681E-1
9.83795E-1,-1.48864E-1
9.83825E-1,-1.49139E-1
9.83734E-1,-1.49536E-1
9.83398E-1,-1.49841E-1
9.83276E-1,-1.50268E-1
9.83215E-1,-1.50573E-1
9.83154E-1,-1.50817E-1
9.83032E-1,-1.51245E-1
9.83001E-1,-1.51550E-1
9.82818E-1,-1.51794E-1
9.82757E-1,-1.52221E-1
9.82666E-1,-1.52587E-1
9.82849E-1,-1.52832E-1
9.82727E-1,-1.53137E-1
9.82727E-1,-1.53381E-1
9.82849E-1,-1.53747E-1
9.82940E-1,-1.54052E-1
9.82971E-1,-1.54449E-1
9.83184E-1,-1.54754E-1
9.83337E-1,-1.55212E-1
9.83398E-1,-1.55334E-1
9.83459E-1,-1.55639E-1
9.83520E-1,-1.55792E-1
9.83642E-1,-1.55975E-1
9.83734E-1,-1.56066E-1
9.83825E-1,-1.56219E-1
9.83764E-1,-1.5625E-1
9.84039E-1,-1.5625E-1
9.83886E-1,-1.56311E-1
9.83825E-1,-1.56311E-1
9.83947E-1,-1.56433E-1
9.83917E-1,-1.56463E-1
9.83978E-1,-1.56463E-1
9.83795E-1,-1.56616E-1
9.83734E-1,-1.56707E-1
9.83581E-1,-1.56982E-1
9.83520E-1,-1.57226E-1
9.83459E-1,-1.57409E-1
9.83276E-1,-1.57470E-1
9.83062E-1,-1.57684E-1
9.82879E-1,-1.58050E-1
9.82788E-1,-1.58172E-1
9.82574E-1,-1.58355E-1
9.82482E-1,-1.58508E-1
9.82421E-1,-1.58874E-1
9.82299E-1,-1.59118E-1
9.82177E-1,-1.59362E-1
9.82238E-1,-1.59637E-1
9.82208E-1,-1.59912E-1
9.82208E-1,-1.60400E-1
9.82055E-1,-1.60644E-1
9.81994E-1,-1.61071E-1
9.82055E-1,-1.61377E-1
9.81933E-1,-1.61743E-1
9.82055E-1,-1.62048E-1
9.81964E-1,-1.62170E-1
9.81842E-1,-1.62353E-1
9.81903E-1,-1.62658E-1
9.81933E-1,-1.62689E-1
9.81781E-1,-1.62872E-1
9.81933E-1,-1.62963E-1
9.81872E-1,-1.63269E-1
9.81750E-1,-1.63513E-1
9.81811E-1,-1.63757E-1
9.81781E-1,-1.63940E-1
9.81567E-1,-1.64215E-1
9.81475E-1,-1.64611E-1
9.81506E-1,-1.64794E-1
9.81445E-1,-1.64978E-1
9.81445E-1,-1.65222E-1
9.81292E-1,-1.65618E-1
9.81170E-1,-1.65802E-1
9.81170E-1,-1.66076E-1
9.81079E-1,-1.66381E-1
9.81170E-1,-1.66626E-1
9.81018E-1,-1.66809E-1
9.80957E-1,-1.66992E-1
9.81201E-1,-1.67236E-1
9.81201E-1,-1.67541E-1
9.81231E-1,-1.67755E-1
9.81292E-1,-1.67877E-1
9.81536E-1,-1.68273E-1
9.81384E-1,-1.68457E-1
9.81445E-1,-1.68640E-1
9.81567E-1,-1.68884E-1
9.81445E-1,-1.69006E-1
9.81567E-1,-1.6922E-1
9.81597E-1,-1.69281E-1
9.81475E-1,-1.69311E-1
9.81567E-1,-1.69372E-1
9.81323E-1,-1.69494E-1
9.81567E-1,-1.69616E-1
9.81201E-1,-1.69555E-1
9.81384E-1,-1.69616E-1
9.81140E-1,-1.69677E-1
9.81048E-1,-1.69891E-1
9.80773E-1,-1.70074E-1
9.80773E-1,-1.70257E-1
9.80651E-1,-1.70623E-1
9.80224E-1,-1.70837E-1
9.80163E-1,-1.71081E-1
9.80041E-1,-1.71386E-1
9.79736E-1,-1.71783E-1
9.79675E-1,-1.72058E-1
9.79522E-1,-1.72302E-1
9.79339E-1,-1.72668E-1
9.79248E-1,-1.73034E-1
9.79126E-1,-1.73217E-1
9.79064E-1,-1.73767E-1
9.79064E-1,-1.74011E-1
9.79003E-1,-1.74316E-1
9.79003E-1,-1.74682E-1
9.79034E-1,-1.75140E-1
9.79095E-1,-1.75567E-1
9.78973E-1,-1.75842E-1
9.79064E-1,-1.76025E-1
9.79003E-1,-1.76452E-1
9.79064E-1,-1.76757E-1
9.79248E-1,-1.76818E-1
9.79400E-1,-1.76910E-1
9.79522E-1,-1.76971E-1
9.79278E-1,-1.77276E-1
9.79339E-1,-1.77246E-1
9.79339E-1,-1.77398E-1
9.79309E-1,-1.77551E-1
9.79126E-1,-1.77795E-1
9.79126E-1,-1.77856E-1
9.79003E-1,-1.78070E-1
9.78881E-1,-1.78253E-1
9.78790E-1,-1.78375E-1
9.78607E-1,-1.78772E-1
9.78454E-1,-1.79016E-1
9.78332E-1,-1.79260E-1
9.77966E-1,-1.79626E-1
9.77966E-1,-1.80023E-1
9.77691E-1,-1.80297E-1
9.77691E-1,-1.80633E-1
9.77478E-1,-1.80938E-1
9.77294E-1,-1.81304E-1
9.77356E-1,-1.81701E-1
9.77417E-1,-1.82067E-1
9.77417E-1,-1.82373E-1
9.77356E-1,-1.82952E-1
9.77478E-1,-1.83258E-1
9.77508E-1,-1.83685E-1
9.77447E-1,-1.84051E-1
9.77722E-1,-1.84478E-1
9.77722E-1,-1.84631E-1
9.77905E-1,-1.84936E-1
9.77996E-1,-1.85211E-1
9.78057E-1,-1.85394E-1
9.78088E-1,-1.85577E-1
9.78271E-1,-1.85607E-1
9.78393E-1,-1.85607E-1
9.78515E-1,-1.8573E-1
9.78668E-1,-1.85821E-1
9.78637E-1,-1.85913E-1
9.78637E-1,-1.85913E-1
9.78576E-1,-1.86065E-1
9.78698E-1,-1.86004E-1
9.78515E-1,-1.86218E-1
9.78515E-1,-1.86279E-1
9.78454E-1,-1.86462E-1
9.78210E-1,-1.86584E-1
9.78271E-1,-1.86706E-1
9.78027E-1,-1.86920E-1
9.77844E-1,-1.86981E-1
9.77783E-1,-1.87347E-1
9.77539E-1,-1.87377E-1
9.77478E-1,-1.87591E-1
9.77508E-1,-1.87988E-1
9.77203E-1,-1.88171E-1
9.77294E-1,-1.88476E-1
9.77172E-1,-1.88781E-1
9.77203E-1,-1.88995E-1
9.77172E-1,-1.89331E-1
9.77203E-1,-1.89666E-1
9.77142E-1,-1.89941E-1
9.77356E-1,-1.90277E-1
9.77386E-1,-1.90551E-1
9.77386E-1,-1.90704E-1
9.77478E-1,-1.90826E-1
9.77539E-1,-1.9104E-1
9.77539E-1,-1.91009E-1
9.77447E-1,-1.91070E-1
9.77600E-1,-1.91253E-1
9.77630E-1,-1.91284E-1
9.77600E-1,-1.91253E-1
9.77600E-1,-1.91284E-1
9.77600E-1,-1.91284E-1
9.77478E-1,-1.91589E-1
9.77447E-1,-1.91589E-1
9.77325E-1,-1.91680E-1
9.77172E-1,-1.91833E-1
9.76959E-1,-1.91955E-1
9.76745E-1,-1.92077E-1
9.76562E-1,-1.92321E-1
9.76318E-1,-1.92565E-1
9.76074E-1,-1.92779E-1
9.75891E-1,-1.92962E-1
9.75616E-1,-1.93267E-1
9.75402E-1,-1.93450E-1
9.75219E-1,-1.93847E-1
9.75036E-1,-1.94122E-1
9.74853E-1,-1.94519E-1
9.74762E-1,-1.95007E-1
9.74487E-1,-1.95465E-1
9.74609E-1,-1.95770E-1
9.74365E-1,-1.96350E-1
9.74365E-1,-1.96777E-1
9.74243E-1,-1.97326E-1
9.74243E-1,-1.97814E-1
9.74121E-1,-1.98059E-1
9.74304E-1,-1.98608E-1
9.74243E-1,-1.98852E-1
9.74243E-1,-1.99096E-1
9.74243E-1,-1.99340E-1
9.74365E-1,-1.99523E-1
9.74670E-1,-1.99829E-1
9.74731E-1,-2.00073E-1
9.74792E-1,-2.00378E-1
9.74914E-1,-2.00500E-1
9.75006E-1,-2.00805E-1
9.74884E-1,-2.00897E-1
9.75067E-1,-2.01232E-1
9.75036E-1,-2.01385E-1
9.75128E-1,-2.01660E-1
9.75097E-1,-2.01721E-1
9.75158E-1,-2.01904E-1
9.75189E-1,-2.01995E-1
9.75189E-1,-2.02026E-1
9.75189E-1,-2.02179E-1
9.75341E-1,-2.0224E-1
9.75250E-1,-2.02423E-1
9.75311E-1,-2.02484E-1
9.75128E-1,-2.02606E-1
9.75341E-1,-2.02697E-1
9.75158E-1,-2.02850E-1
9.75219E-1,-2.03064E-1
9.75219E-1,-2.03186E-1
9.75280E-1,-2.03308E-1
9.75219E-1,-2.03491E-1
9.75402E-1,-2.03552E-1
9.75341E-1,-2.03674E-1
9.75463E-1,-2.03796E-1
9.75097E-1,-2.03674E-1
9.75036E-1,-2.03857E-1
9.75158E-1,-2.03857E-1
9.74975E-1,-2.03857E-1
9.74853E-1,-2.03918E-1
9.74792E-1,-2.04040E-1
9.74670E-1,-2.04101E-1
9.74548E-1,-2.04223E-1
9.74487E-1,-2.04406E-1
9.74304E-1,-2.04559E-1
9.74060E-1,-2.04772E-1
9.73754E-1,-2.04895E-1
9.73724E-1,-2.05139E-1
9.73388E-1,-2.05505E-1
9.73083E-1,-2.05688E-1
9.72961E-1,-2.06054E-1
9.72656E-1,-2.06390E-1
9.72412E-1,-2.06756E-1
9.7229E-1,-2.06970E-1
9.72259E-1,-2.07336E-1
9.72015E-1,-2.07733E-1
9.71862E-1,-2.08068E-1
9.71679E-1,-2.08557E-1
9.71740E-1,-2.08984E-1
9.71557E-1,-2.09350E-1
9.71618E-1,-2.09777E-1
9.71496E-1,-2.10205E-1
9.71557E-1,-2.10632E-1
9.71496E-1,-2.11059E-1
9.71435E-1,-2.11486E-1
9.71557E-1,-2.11792E-1
9.71496E-1,-2.12097E-1
9.71496E-1,-2.12402E-1
9.71679E-1,-2.12524E-1
9.71679E-1,-2.12768E-1
9.71801E-1,-2.12829E-1
9.71862E-1,-2.13012E-1
9.72106E-1,-2.13134E-1
9.72106E-1,-2.13348E-1
9.72168E-1,-2.13501E-1
9.72106E-1,-2.13745E-1
9.7229E-1,-2.14050E-1
9.72229E-1,-2.13989E-1
9.72076E-1,-2.14080E-1
9.72229E-1,-2.14386E-1
9.72137E-1,-2.14355E-1
9.72229E-1,-2.14630E-1
9.71984E-1,-2.14782E-1
9.72015E-1,-2.14691E-1
9.72045E-1,-2.14965E-1
9.71984E-1,-2.14935E-1
9.71893E-1,-2.15057E-1
9.71923E-1,-2.15148E-1
9.71740E-1,-2.15393E-1
9.71740E-1,-2.15454E-1
9.71740E-1,-2.15515E-1
9.71679E-1,-2.15881E-1
9.71496E-1,-2.16003E-1
9.71496E-1,-2.16308E-1
9.71374E-1,-2.16491E-1
9.71313E-1,-2.16613E-1
9.71130E-1,-2.16796E-1
9.71069E-1,-2.16918E-1
9.70672E-1,-2.17041E-1
9.70764E-1,-2.17346E-1
9.7052E-1,-2.17407E-1
9.70397E-1,-2.17468E-1
9.70092E-1,-2.17895E-1
9.69909E-1,-2.17895E-1
9.69970E-1,-2.18200E-1
9.69574E-1,-2.18444E-1
9.69360E-1,-2.18689E-1
9.69116E-1,-2.19116E-1
9.68994E-1,-2.19543E-1
9.68689E-1,-2.19848E-1
9.68444E-1,-2.20214E-1
9.68139E-1,-2.20642E-1
9.67956E-1,-2.21130E-1
9.67773E-1,-2.21557E-1
9.67620E-1,-2.22015E-1
9.67376E-1,-2.22473E-1
9.67346E-1,-2.22900E-1
9.67346E-1,-2.23327E-1
9.67346E-1,-2.23815E-1
9.67224E-1,-2.24365E-1
9.67224E-1,-2.24792E-1
9.67468E-1,-2.25341E-1
9.67468E-1,-2.25708E-1
9.67529E-1,-2.26074E-1
9.67834E-1,-2.26440E-1
9.67834E-1,-2.26928E-1
9.67956E-1,-2.27478E-1
9.68261E-1,-2.27539E-1
9.68383E-1,-2.27783E-1
9.68505E-1,-2.27966E-1
9.68811E-1,-2.28088E-1
9.68994E-1,-2.28027E-1
9.69177E-1,-2.28149E-1
9.69421E-1,-2.28149E-1
9.69482E-1,-2.28149E-1
9.69665E-1,-2.28088E-1
9.69909E-1,-2.28088E-1
9.69909E-1,-2.28088E-1
9.69848E-1,-2.28027E-1
9.69848E-1,-2.28027E-1
9.69848E-1,-2.27905E-1
9.69787E-1,-2.27966E-1
9.69604E-1,-2.28149E-1
9.69360E-1,-2.28088E-1
9.69177E-1,-2.28027E-1
9.68933E-1,-2.28210E-1
9.68872E-1,-2.28271E-1
9.68566E-1,-2.28454E-1
9.68444E-1,-2.28637E-1
9.68261E-1,-2.28759E-1
9.68017E-1,-2.28942E-1
9.68017E-1,-2.29187E-1
9.67590E-1,-2.29553E-1
9.67590E-1,-2.29858E-1
9.67407E-1,-2.30224E-1
9.67224E-1,-2.30529E-1
9.67163E-1,-2.30957E-1
9.67102E-1,-2.31323E-1
9.67041E-1,-2.31872E-1
9.66857E-1,-2.32055E-1
9.66857E-1,-2.32421E-1
9.66796E-1,-2.32788E-1
9.66888E-1,-2.33123E-1
9.66918E-1,-2.33337E-1
9.66918E-1,-2.33520E-1
9.67041E-1,-2.33520E-1
9.66857E-1,-2.33764E-1
9.6698E-1,-2.34069E-1
9.67102E-1,-2.34252E-1
9.67285E-1,-2.34436E-1
9.67163E-1,-2.34497E-1
9.67041E-1,-2.34863E-1
9.67407E-1,-2.35046E-1
9.67224E-1,-2.35168E-1
9.67102E-1,-2.35229E-1
9.67041E-1,-2.35595E-1
9.66918E-1,-2.35717E-1
9.6698E-1,-2.35900E-1
9.66918E-1,-2.35961E-1
9.66674E-1,-2.36145E-1
9.66613E-1,-2.36206E-1
9.66796E-1,-2.36511E-1
9.66674E-1,-2.36572E-1
9.66613E-1,-2.36755E-1
9.66613E-1,-2.36999E-1
9.66491E-1,-2.37365E-1
9.66430E-1,-2.37548E-1
9.66369E-1,-2.37793E-1
9.66369E-1,-2.37976E-1
9.66308E-1,-2.38159E-1
9.66308E-1,-2.38464E-1
9.66369E-1,-2.38586E-1
9.66369E-1,-2.38647E-1
9.66125E-1,-2.38952E-1
9.66186E-1,-2.39074E-1
9.66247E-1,-2.39135E-1
9.66308E-1,-2.39074E-1
9.66003E-1,-2.39318E-1
9.66125E-1,-2.39502E-1
9.66064E-1,-2.39318E-1
9.65942E-1,-2.39563E-1
9.65881E-1,-2.39746E-1
9.65881E-1,-2.39746E-1
9.65515E-1,-2.39990E-1
9.6521E-1,-2.40051E-1
9.65271E-1,-2.40356E-1
9.64843E-1,-2.40539E-1
9.64660E-1,-2.40905E-1
9.64477E-1,-2.41149E-1
9.64233E-1,-2.41394E-1
9.63928E-1,-2.41638E-1
9.63745E-1,-2.41943E-1
9.63439E-1,-2.42309E-1
9.63378E-1,-2.42553E-1
9.63195E-1,-2.43164E-1
9.63012E-1,-2.43530E-1
9.63073E-1,-2.44079E-1
9.62829E-1,-2.44445E-1
9.62768E-1,-2.44995E-1
9.62768E-1,-2.45422E-1
9.62890E-1,-2.45727E-1
9.62829E-1,-2.46337E-1
9.62951E-1,-2.46765E-1
9.62829E-1,-2.47192E-1
9.63073E-1,-2.47436E-1
9.63195E-1,-2.47558E-1
9.63256E-1,-2.47802E-1
9.63562E-1,-2.47985E-1
9.63684E-1,-2.48107E-1
9.63989E-1,-2.4823E-1
9.64050E-1,-2.4823E-1
9.64294E-1,-2.48352E-1
9.64477E-1,-2.48352E-1
9.64477E-1,-2.48474E-1
9.64599E-1,-2.48535E-1
9.64538E-1,-2.48291E-1
9.64660E-1,-2.48352E-1
9.64477E-1,-2.4823E-1
9.64294E-1,-2.48352E-1
9.64416E-1,-2.4823E-1
9.64050E-1,-2.48291E-1
9.63989E-1,-2.4823E-1
9.63867E-1,-2.48168E-1
9.63501E-1,-2.48168E-1
9.63317E-1,-2.48291E-1
9.63012E-1,-2.48596E-1
9.62768E-1,-2.48779E-1
9.62463E-1,-2.48962E-1
9.62188E-1,-2.49237E-1
9.61731E-1,-2.49633E-1
9.61669E-1,-2.50061E-1
9.61364E-1,-2.50488E-1
9.61059E-1,-2.50976E-1
9.60876E-1,-2.51464E-1
9.60632E-1,-2.51892E-1
9.60510E-1,-2.52380E-1
9.60327E-1,-2.52746E-1
9.60266E-1,-2.53234E-1
9.60327E-1,-2.53662E-1
9.60266E-1,-2.53967E-1
9.60510E-1,-2.54272E-1
9.60510E-1,-2.54699E-1
9.60449E-1,-2.55127E-1
9.60571E-1,-2.55371E-1
9.60876E-1,-2.55767E-1
9.60693E-1,-2.55981E-1
9.60937E-1,-2.56103E-1
9.61120E-1,-2.56469E-1
9.61242E-1,-2.56652E-1
9.61242E-1,-2.56591E-1
9.61303E-1,-2.56835E-1
9.61364E-1,-2.56897E-1
9.61364E-1,-2.56897E-1
9.61425E-1,-2.57019E-1
9.61364E-1,-2.56958E-1
9.61364E-1,-2.57080E-1
9.61425E-1,-2.56958E-1
9.61242E-1,-2.57080E-1
9.61181E-1,-2.57202E-1
9.60998E-1,-2.57446E-1
9.60937E-1,-2.57476E-1
9.60815E-1,-2.57629E-1
9.60510E-1,-2.57812E-1
9.60449E-1,-2.57873E-1
9.60144E-1,-2.58239E-1
9.60022E-1,-2.58483E-1
9.59777E-1,-2.58667E-1
9.59472E-1,-2.58850E-1
9.59350E-1,-2.59338E-1
9.59075E-1,-2.59491E-1
9.58923E-1,-2.59704E-1
9.58923E-1,-2.60131E-1
9.58740E-1,-2.60253E-1
9.58679E-1,-2.60681E-1
9.58496E-1,-2.61047E-1
9.58618E-1,-2.61474E-1
9.58496E-1,-2.61718E-1
9.58496E-1,-2.62146E-1
9.58313E-1,-2.62634E-1
9.58190E-1,-2.62878E-1
9.58374E-1,-2.63244E-1
9.58129E-1,-2.63366E-1
9.58129E-1,-2.63671E-1
9.58190E-1,-2.63855E-1
9.58007E-1,-2.64221E-1
9.58038E-1,-2.64343E-1
9.57946E-1,-2.64526E-1
9.58007E-1,-2.64648E-1
9.58129E-1,-2.64770E-1
9.58068E-1,-2.65197E-1
9.57885E-1,-2.65319E-1
9.57946E-1,-2.65564E-1
9.57824E-1,-2.65838E-1
9.57763E-1,-2.66052E-1
9.57641E-1,-2.66357E-1
9.57580E-1,-2.66601E-1
9.57458E-1,-2.66723E-1
9.57336E-1,-2.67089E-1
9.57336E-1,-2.67395E-1
9.57275E-1,-2.67639E-1
9.57214E-1,-2.67761E-1
9.57244E-1,-2.67883E-1
9.57153E-1,-2.68249E-1
9.57275E-1,-2.68249E-1
9.57214E-1,-2.68737E-1
9.57153E-1,-2.68920E-1
9.57336E-1,-2.69165E-1
9.57336E-1,-2.69287E-1
9.57336E-1,-2.69470E-1
9.57275E-1,-2.69714E-1
9.57214E-1,-2.69775E-1
9.57336E-1,-2.70019E-1
9.57336E-1,-2.70080E-1
9.57153E-1,-2.70263E-1
9.57275E-1,-2.70507E-1
9.57214E-1,-2.70568E-1
9.57092E-1,-2.70629E-1
9.57214E-1,-2.70629E-1
9.57092E-1,-2.70752E-1
9.57153E-1,-2.70935E-1
9.56909E-1,-2.70996E-1
9.56787E-1,-2.70935E-1
9.56543E-1,-2.71179E-1
9.56420E-1,-2.71484E-1
9.56329E-1,-2.71759E-1
9.56115E-1,-2.71789E-1
9.55749E-1,-2.72094E-1
9.55749E-1,-2.72338E-1
9.55322E-1,-2.72705E-1
9.54956E-1,-2.73132E-1
9.54834E-1,-2.73437E-1
9.54528E-1,-2.73742E-1
9.54284E-1,-2.74108E-1
9.54071E-1,-2.74444E-1
9.54101E-1,-2.74902E-1
9.53735E-1,-2.75207E-1
9.53857E-1,-2.75634E-1
9.53735E-1,-2.76123E-1
9.53674E-1,-2.76550E-1
9.53674E-1,-2.77160E-1
9.53643E-1,-2.77526E-1
9.53613E-1,-2.77954E-1
9.53735E-1,-2.78564E-1
9.53918E-1,-2.78930E-1
9.54040E-1,-2.79296E-1
9.54162E-1,-2.79602E-1
9.54223E-1,-2.79846E-1
9.54772E-1,-2.80090E-1
9.54834E-1,-2.80212E-1
9.55230E-1,-2.80365E-1
9.55444E-1,-2.80456E-1
9.55688E-1,-2.80395E-1
9.56115E-1,-2.80456E-1
