CITIFILE A.01.00
#NA VERSION HP8753D.06.12
NAME DATA
VAR FREQ MAG 1601
DATA S[1,1] RI
SEG_LIST_BEGIN
SEG 100000000 200000000 1601
SEG_LIST_END
BEGIN
-5.31845E-2,2.46971E-1
-4.77218E-2,2.44438E-1
-4.35943E-2,2.41523E-1
-3.79943E-2,2.37693E-1
-3.39889E-2,2.34199E-1
-2.87933E-2,2.28668E-1
-2.33764E-2,2.22869E-1
-1.88598E-2,2.17010E-1
-1.32293E-2,2.11273E-1
-7.27844E-3,2.04361E-1
0.00129E-1,1.96281E-1
0.07537E-1,1.90086E-1
0.14343E-1,1.83921E-1
0.22338E-1,1.77406E-1
0.31127E-1,1.70944E-1
0.38955E-1,1.66137E-1
0.48080E-1,1.61758E-1
0.56015E-1,1.58355E-1
0.64895E-1,1.54495E-1
0.72380E-1,1.51863E-1
0.78392E-1,1.49650E-1
0.84327E-1,1.48384E-1
0.89607E-1,1.4608E-1
0.93124E-1,1.44943E-1
0.96817E-1,1.42608E-1
0.98327E-1,1.40686E-1
0.99090E-1,1.37832E-1
1.00235E-1,1.35711E-1
0.99853E-1,1.31607E-1
0.99212E-1,1.26655E-1
9.80377E-2,1.20636E-1
9.77935E-2,1.13594E-1
9.69085E-2,1.05339E-1
9.66033E-2,9.68093E-2
9.70459E-2,8.78372E-2
9.74578E-2,7.80639E-2
9.94339E-2,6.77948E-2
1.01936E-1,5.80520E-2
1.06529E-1,4.72259E-2
1.1129E-1,3.79180E-2
1.15341E-1,2.92358E-2
1.21307E-1,2.09732E-2
1.27723E-1,0.14099E-1
1.33209E-1,0.08071E-1
1.40022E-1,0.02365E-1
1.45629E-1,-9.00268E-4
1.50695E-1,-4.01306E-3
1.55441E-1,-5.72204E-3
1.57455E-1,-7.09533E-3
1.59927E-1,-6.25610E-3
1.60789E-1,-7.6828E-3
1.60270E-1,-8.72802E-3
1.58645E-1,-8.07189E-3
1.54693E-1,-9.58252E-3
1.50703E-1,-1.16653E-2
1.46400E-1,-1.49612E-2
1.40800E-1,-1.85089E-2
1.34857E-1,-2.33764E-2
1.29409E-1,-3.05328E-2
1.24164E-1,-3.75938E-2
1.19781E-1,-4.62646E-2
1.15348E-1,-5.53741E-2
1.12770E-1,-6.48727E-2
1.11145E-1,-7.57064E-2
1.10878E-1,-8.53424E-2
1.12342E-1,-9.47189E-2
1.13174E-1,-1.04751E-1
1.15875E-1,-1.12701E-1
1.20346E-1,-1.19812E-1
1.23687E-1,-1.25549E-1
1.28250E-1,-1.29913E-1
1.32247E-1,-1.32766E-1
1.36077E-1,-1.34765E-1
1.37847E-1,-1.34460E-1
1.39648E-1,-1.33705E-1
1.40884E-1,-1.32209E-1
1.40136E-1,-1.28837E-1
1.37603E-1,-1.25930E-1
1.33819E-1,-1.23382E-1
1.27960E-1,-1.21917E-1
1.21704E-1,-1.20407E-1
1.13906E-1,-1.20071E-1
1.05514E-1,-1.19949E-1
9.65957E-2,-1.23123E-1
0.87844E-1,-1.26892E-1
0.78949E-1,-1.32103E-1
0.71792E-1,-1.38084E-1
0.64201E-1,-1.45637E-1
0.58624E-1,-1.54541E-1
0.54138E-1,-1.64093E-1
0.51940E-1,-1.72729E-1
0.50506E-1,-1.80786E-1
0.51055E-1,-1.89514E-1
0.52597E-1,-1.97525E-1
0.55419E-1,-2.02590E-1
0.58837E-1,-2.07916E-1
0.63232E-1,-2.10311E-1
0.66902E-1,-2.11334E-1
0.72265E-1,-2.11898E-1
0.74386E-1,-2.09396E-1
0.76751E-1,-2.05932E-1
0.78826E-1,-2.01034E-1
0.78476E-1,-1.94519E-1
0.75897E-1,-1.88995E-1
0.72479E-1,-1.82464E-1
0.67459E-1,-1.75720E-1
0.60394E-1,-1.71203E-1
0.52482E-1,-1.66168E-1
0.42221E-1,-1.64123E-1
0.31875E-1,-1.61598E-1
0.23506E-1,-1.61773E-1
0.12168E-1,-1.62735E-1
0.03234E-1,-1.66259E-1
-5.84411E-3,-1.69525E-1
-1.28173E-2,-1.76101E-1
-1.81732E-2,-1.82296E-1
-2.25372E-2,-1.88583E-1
-2.54211E-2,-1.95022E-1
-2.63061E-2,-2.00607E-1
-2.49404E-2,-2.05047E-1
-2.32391E-2,-2.10342E-1
-2.07366E-2,-2.12829E-1
-1.76696E-2,-2.13409E-1
-1.31378E-2,-2.12905E-1
-9.14001E-3,-2.09869E-1
-6.48498E-3,-2.06100E-1
-4.07409E-3,-2.00408E-1
-3.78418E-3,-1.93618E-1
-5.15747E-3,-1.84143E-1
-7.40051E-3,-1.75994E-1
-1.23519E-2,-1.67274E-1
-1.75705E-2,-1.58882E-1
-2.56805E-2,-1.52099E-1
-3.47137E-2,-1.44943E-1
-4.53414E-2,-1.41273E-1
-5.71746E-2,-1.38183E-1
-6.70013E-2,-1.37161E-1
-7.78198E-2,-1.37268E-1
-8.77685E-2,-1.40930E-1
-9.70153E-2,-1.45385E-1
-1.04476E-1,-1.49589E-1
-1.10588E-1,-1.57135E-1
-1.12960E-1,-1.63070E-1
-1.15654E-1,-1.70333E-1
-1.14807E-1,-1.77246E-1
-1.13205E-1,-1.82998E-1
-1.08581E-1,-1.86569E-1
-1.03637E-1,-1.89071E-1
-9.80987E-2,-1.90216E-1
-9.12323E-2,-1.89804E-1
-8.61663E-2,-1.86706E-1
-7.86285E-2,-1.81045E-1
-7.41424E-2,-1.74377E-1
-7.09075E-2,-1.65809E-1
-6.79168E-2,-1.55647E-1
-6.76651E-2,-1.45706E-1
-6.91375E-2,-1.35009E-1
-7.31887E-2,-1.23966E-1
-7.77664E-2,-1.14616E-1
-8.59298E-2,-1.06216E-1
-9.22241E-2,-9.78088E-2
-1.02417E-1,-9.31320E-2
-1.12342E-1,-8.91037E-2
-1.21551E-1,-8.78143E-2
-1.30165E-1,-8.79211E-2
-1.37908E-1,-8.93554E-2
-1.44447E-1,-9.25293E-2
-1.49566E-1,-9.62142E-2
-1.52236E-1,-1.02279E-1
-1.52122E-1,-1.06620E-1
-1.52191E-1,-1.11373E-1
-1.48239E-1,-1.15081E-1
-1.44256E-1,-1.18042E-1
-1.37603E-1,-1.19201E-1
-1.31485E-1,-1.19125E-1
-1.24198E-1,-1.16310E-1
-1.17370E-1,-1.11503E-1
-1.11793E-1,-1.06353E-1
-1.0569E-1,-9.73281E-2
-1.01432E-1,-8.84780E-2
-9.89303E-2,-7.87277E-2
-9.77325E-2,-6.73370E-2
-9.92584E-2,-5.68084E-2
-1.02035E-1,-4.64859E-2
-1.06048E-1,-3.65066E-2
-1.11503E-1,-2.88696E-2
-1.19072E-1,-2.09579E-2
-1.25869E-1,-1.67617E-2
-1.33544E-1,-1.42059E-2
-1.40380E-1,-1.24588E-2
-1.46965E-1,-1.38397E-2
-1.51550E-1,-1.61590E-2
-1.54678E-1,-1.88598E-2
-1.56036E-1,-2.40325E-2
-1.56097E-1,-2.77099E-2
-1.52313E-1,-3.17535E-2
-1.47628E-1,-3.62243E-2
-1.40945E-1,-3.75671E-2
-1.32904E-1,-3.88259E-2
-1.23764E-1,-3.71398E-2
-1.14151E-1,-3.41339E-2
-1.04011E-1,-2.79998E-2
-9.53941E-2,-2.14576E-2
-8.74328E-2,-1.13868E-2
-8.15887E-2,-1.83105E-4
-7.65152E-2,1.3237E-2
-7.38067E-2,2.71759E-2
-7.34748E-2,4.19807E-2
-7.61489E-2,5.57174E-2
-8.09364E-2,6.83212E-2
-8.81042E-2,7.89566E-2
-9.64050E-2,8.89892E-2
-1.06597E-1,9.55200E-2
-1.17736E-1,1.00860E-1
-1.28356E-1,1.01928E-1
-1.38488E-1,1.00463E-1
-1.47247E-1,0.96832E-1
-1.54983E-1,0.90911E-1
-1.60003E-1,0.83679E-1
-1.63139E-1,0.75141E-1
-1.62033E-1,0.65223E-1
-1.59248E-1,0.55587E-1
-1.52763E-1,0.46814E-1
-1.45004E-1,0.38963E-1
-1.34597E-1,0.32943E-1
-1.22016E-1,2.89993E-2
-1.08741E-1,2.77938E-2
-9.39865E-2,2.93426E-2
-8.15506E-2,3.30429E-2
-6.84738E-2,3.93600E-2
-5.56716E-2,4.79602E-2
-4.52232E-2,5.85403E-2
-3.75251E-2,7.01561E-2
-3.13415E-2,8.30192E-2
-2.94342E-2,9.76715E-2
-2.80838E-2,1.09817E-1
-2.97546E-2,1.21124E-1
-3.27682E-2,1.32392E-1
-3.81240E-2,1.39869E-1
-4.42352E-2,1.45576E-1
-5.08270E-2,1.49635E-1
-5.71441E-2,1.49559E-1
-6.24694E-2,1.48010E-1
-6.68258E-2,1.44424E-1
-6.83364E-2,1.38603E-1
-6.79321E-2,1.32812E-1
-6.54068E-2,1.25625E-1
-5.97763E-2,1.17683E-1
-5.20706E-2,1.11663E-1
-4.19921E-2,1.06544E-1
-2.87780E-2,1.02874E-1
-1.65863E-2,1.02668E-1
-1.27410E-3,1.04835E-1
1.39160E-2,1.07017E-1
2.84080E-2,1.15444E-1
0.42076E-1,1.25221E-1
0.53436E-1,1.37405E-1
0.62957E-1,1.52282E-1
0.68939E-1,1.66397E-1
0.74142E-1,1.84356E-1
0.74356E-1,2.00286E-1
0.72021E-1,2.16110E-1
0.65902E-1,2.31185E-1
0.57220E-1,2.43698E-1
0.45608E-1,2.52685E-1
0.34973E-1,2.58926E-1
0.22918E-1,2.61840E-1
0.10406E-1,2.60711E-1
-1.43432E-3,2.56439E-1
-1.12609E-2,2.49054E-1
-1.87835E-2,2.40219E-1
-2.36206E-2,2.27859E-1
-2.48260E-2,2.14828E-1
-2.40783E-2,2.00973E-1
-1.79443E-2,1.87912E-1
-9.01794E-3,1.75445E-1
0.00846E-1,1.63780E-1
0.14648E-1,1.54823E-1
0.29975E-1,1.48590E-1
0.46272E-1,1.45393E-1
0.62515E-1,1.43608E-1
0.78926E-1,1.45996E-1
0.94772E-1,1.52252E-1
1.08139E-1,1.60385E-1
1.19812E-1,1.69036E-1
1.28479E-1,1.81030E-1
1.34597E-1,1.92474E-1
1.38183E-1,2.04971E-1
1.37603E-1,2.16323E-1
1.34620E-1,2.25776E-1
1.28486E-1,2.34573E-1
1.21841E-1,2.39578E-1
1.13906E-1,2.42599E-1
1.06170E-1,2.40982E-1
0.98114E-1,2.36053E-1
0.91095E-1,2.29766E-1
0.86135E-1,2.20108E-1
0.85464E-1,2.07809E-1
0.86151E-1,1.93878E-1
0.89645E-1,1.80999E-1
0.96496E-1,1.67167E-1
1.06178E-1,1.53808E-1
1.19819E-1,1.43409E-1
1.35192E-1,1.33697E-1
1.52259E-1,1.26083E-1
1.71295E-1,1.23596E-1
1.90033E-1,1.2323E-1
2.10250E-1,1.25671E-1
2.27935E-1,1.30737E-1
2.45239E-1,1.40197E-1
2.59658E-1,1.52069E-1
2.70996E-1,1.64062E-1
2.79159E-1,1.78863E-1
2.85095E-1,1.95282E-1
2.85369E-1,2.10754E-1
2.83737E-1,2.25311E-1
2.78930E-1,2.36740E-1
2.71545E-1,2.46780E-1
2.61535E-1,2.55127E-1
2.49664E-1,2.58331E-1
2.38006E-1,2.57415E-1
2.26745E-1,2.53707E-1
2.16705E-1,2.47161E-1
2.09060E-1,2.37350E-1
2.03369E-1,2.24166E-1
2.01431E-1,2.11959E-1
2.0224E-1,1.96304E-1
2.05551E-1,1.81091E-1
2.12776E-1,1.67404E-1
2.22808E-1,1.54892E-1
2.34970E-1,1.43112E-1
2.48947E-1,1.35070E-1
2.64953E-1,1.28494E-1
2.79815E-1,1.25656E-1
2.96585E-1,1.26129E-1
3.11538E-1,1.27594E-1
3.2547E-1,1.33483E-1
3.38104E-1,1.39923E-1
3.48266E-1,1.50421E-1
3.54019E-1,1.60736E-1
3.57971E-1,1.71325E-1
3.57635E-1,1.82907E-1
3.55789E-1,1.9104E-1
3.51440E-1,1.99585E-1
3.42865E-1,2.04223E-1
3.34564E-1,2.06817E-1
3.24478E-1,2.05490E-1
3.15048E-1,2.02697E-1
3.06350E-1,1.94564E-1
2.98751E-1,1.84738E-1
2.94494E-1,1.72180E-1
2.90802E-1,1.58493E-1
2.91214E-1,1.42288E-1
2.94326E-1,1.27243E-1
2.99896E-1,1.11145E-1
3.09204E-1,0.97076E-1
3.20602E-1,0.83572E-1
3.33877E-1,0.72570E-1
3.49853E-1,0.63369E-1
3.66882E-1,0.56808E-1
3.83102E-1,0.54916E-1
3.99017E-1,0.53817E-1
4.15557E-1,0.56762E-1
4.28527E-1,0.62042E-1
4.40338E-1,0.68847E-1
4.49600E-1,0.78903E-1
4.56573E-1,0.88714E-1
4.58831E-1,0.99884E-1
4.60174E-1,1.09283E-1
4.57489E-1,1.18530E-1
4.51904E-1,1.26678E-1
4.44412E-1,1.31729E-1
4.35882E-1,1.34506E-1
4.25705E-1,1.33743E-1
4.16687E-1,1.31408E-1
4.06601E-1,1.26419E-1
4.00299E-1,1.15325E-1
3.93890E-1,1.07009E-1
3.90884E-1,0.94329E-1
3.88855E-1,0.82763E-1
3.8974E-1,0.69885E-1
3.94027E-1,0.57891E-1
3.99993E-1,0.44784E-1
4.07226E-1,0.35629E-1
4.16366E-1,0.27343E-1
4.25613E-1,0.20874E-1
4.36645E-1,0.16708E-1
4.46502E-1,0.15365E-1
4.57458E-1,0.15716E-1
4.65026E-1,0.18692E-1
4.71679E-1,0.23056E-1
4.74975E-1,0.28656E-1
4.76776E-1,0.33569E-1
4.75860E-1,0.40161E-1
4.72015E-1,0.45349E-1
4.65652E-1,0.48004E-1
4.57412E-1,0.50308E-1
4.48516E-1,0.49408E-1
4.38461E-1,0.44891E-1
4.27932E-1,0.39016E-1
4.19677E-1,0.29388E-1
4.11651E-1,0.16784E-1
4.06539E-1,0.03753E-1
4.03366E-1,-1.40075E-2
4.03595E-1,-3.06701E-2
4.05593E-1,-4.87365E-2
4.12109E-1,-6.59637E-2
4.22012E-1,-8.26721E-2
4.34631E-1,-9.65423E-2
4.48989E-1,-1.07742E-1
4.65118E-1,-1.17614E-1
4.83154E-1,-1.23474E-1
5.00122E-1,-1.25610E-1
5.17822E-1,-1.24176E-1
5.35034E-1,-1.19781E-1
5.50354E-1,-1.12243E-1
5.625E-1,-1.01074E-1
5.70861E-1,-8.73718E-2
5.77972E-1,-7.19909E-2
5.79864E-1,-5.55419E-2
5.75561E-1,-3.97033E-2
5.69793E-1,-2.42004E-2
5.58319E-1,-1.07727E-2
5.43701E-1,0.00152E-1
5.25756E-1,0.05981E-1
5.07782E-1,0.10437E-1
4.87899E-1,0.08178E-1
4.67758E-1,0.02334E-1
4.48486E-1,-9.41467E-3
4.31945E-1,-2.36816E-2
4.17923E-1,-4.11224E-2
4.07653E-1,-6.25305E-2
4.02389E-1,-8.34198E-2
3.99200E-1,-1.06430E-1
4.02252E-1,-1.29089E-1
4.07379E-1,-1.50421E-1
4.17144E-1,-1.69403E-1
4.29046E-1,-1.86798E-1
4.44091E-1,-1.99920E-1
4.60678E-1,-2.10449E-1
4.78332E-1,-2.16491E-1
4.95361E-1,-2.19482E-1
5.11627E-1,-2.17804E-1
5.27587E-1,-2.12066E-1
5.40466E-1,-2.03735E-1
5.50293E-1,-1.93115E-1
5.56732E-1,-1.80542E-1
5.58593E-1,-1.65100E-1
5.55969E-1,-1.52618E-1
5.51239E-1,-1.38885E-1
5.41412E-1,-1.27563E-1
5.27984E-1,-1.18286E-1
5.13610E-1,-1.13189E-1
4.95605E-1,-1.12365E-1
4.78790E-1,-1.14318E-1
4.59732E-1,-1.20620E-1
4.43771E-1,-1.31561E-1
4.30938E-1,-1.44500E-1
4.19387E-1,-1.61071E-1
4.09973E-1,-1.79931E-1
4.06097E-1,-1.98974E-1
4.05731E-1,-2.19970E-1
4.08157E-1,-2.38616E-1
4.14215E-1,-2.58056E-1
4.23400E-1,-2.74688E-1
4.35821E-1,-2.87384E-1
4.50378E-1,-2.98919E-1
4.65911E-1,-3.06015E-1
4.82421E-1,-3.09661E-1
4.99572E-1,-3.09631E-1
5.13305E-1,-3.05481E-1
5.26580E-1,-2.98797E-1
5.38177E-1,-2.86804E-1
5.45166E-1,-2.74505E-1
5.49438E-1,-2.60162E-1
5.48614E-1,-2.45483E-1
5.44921E-1,-2.29705E-1
5.36590E-1,-2.15911E-1
5.24292E-1,-2.03460E-1
5.10070E-1,-1.93939E-1
4.92080E-1,-1.86355E-1
4.73663E-1,-1.84539E-1
4.52880E-1,-1.86111E-1
4.33410E-1,-1.92199E-1
4.14886E-1,-1.99218E-1
3.98529E-1,-2.11669E-1
3.84307E-1,-2.25463E-1
3.72863E-1,-2.42584E-1
3.63037E-1,-2.62756E-1
3.58932E-1,-2.82074E-1
3.56140E-1,-3.00781E-1
3.58718E-1,-3.19564E-1
3.64440E-1,-3.38180E-1
3.70727E-1,-3.54095E-1
3.79730E-1,-3.67126E-1
3.91052E-1,-3.78234E-1
4.02526E-1,-3.86444E-1
4.16229E-1,-3.90533E-1
4.28009E-1,-3.92303E-1
4.40658E-1,-3.90396E-1
4.50653E-1,-3.87008E-1
4.58831E-1,-3.82293E-1
4.64874E-1,-3.73657E-1
4.69604E-1,-3.64563E-1
4.69162E-1,-3.55117E-1
4.67987E-1,-3.47045E-1
4.64569E-1,-3.37463E-1
4.57824E-1,-3.2901E-1
4.49707E-1,-3.23333E-1
4.39147E-1,-3.18725E-1
4.28222E-1,-3.15643E-1
4.17007E-1,-3.1427E-1
4.05456E-1,-3.16375E-1
3.93386E-1,-3.18969E-1
3.82827E-1,-3.2547E-1
3.74343E-1,-3.31741E-1
3.65188E-1,-3.39752E-1
3.58322E-1,-3.48678E-1
3.53027E-1,-3.57971E-1
3.49731E-1,-3.67981E-1
3.46740E-1,-3.78112E-1
3.45672E-1,-3.86810E-1
3.45550E-1,-3.95324E-1
3.47137E-1,-4.02404E-1
3.4935E-1,-4.09149E-1
3.51287E-1,-4.14108E-1
3.54034E-1,-4.18228E-1
3.55957E-1,-4.21737E-1
3.60275E-1,-4.23828E-1
3.61297E-1,-4.24469E-1
3.63647E-1,-4.24072E-1
3.64135E-1,-4.25048E-1
3.65081E-1,-4.23980E-1
3.65417E-1,-4.23126E-1
3.63159E-1,-4.20745E-1
3.61602E-1,-4.20349E-1
3.60702E-1,-4.18945E-1
3.56735E-1,-4.18991E-1
3.54339E-1,-4.18991E-1
3.50982E-1,-4.17755E-1
3.47396E-1,-4.17251E-1
3.42712E-1,-4.18335E-1
3.39508E-1,-4.17755E-1
3.36181E-1,-4.17938E-1
3.32000E-1,-4.20043E-1
3.26660E-1,-4.19036E-1
3.22937E-1,-4.21203E-1
3.18481E-1,-4.22912E-1
3.13613E-1,-4.24408E-1
3.07937E-1,-4.25598E-1
3.04260E-1,-4.28283E-1
3.01086E-1,-4.30572E-1
2.95211E-1,-4.33349E-1
2.91809E-1,-4.34906E-1
2.88330E-1,-4.37835E-1
2.82501E-1,-4.41009E-1
2.79357E-1,-4.45007E-1
2.77893E-1,-4.49432E-1
2.74505E-1,-4.52453E-1
2.70507E-1,-4.55474E-1
2.70172E-1,-4.59838E-1
2.67318E-1,-4.64111E-1
2.67608E-1,-4.66949E-1
2.68035E-1,-4.68811E-1
2.65640E-1,-4.72641E-1
2.64648E-1,-4.74762E-1
2.65564E-1,-4.77172E-1
2.66967E-1,-4.77020E-1
2.67395E-1,-4.75585E-1
2.66754E-1,-4.77600E-1
2.67242E-1,-4.75830E-1
2.66296E-1,-4.73266E-1
2.64923E-1,-4.72854E-1
2.63305E-1,-4.71176E-1
2.60559E-1,-4.69085E-1
2.59292E-1,-4.67117E-1
2.54074E-1,-4.64004E-1
2.49588E-1,-4.62463E-1
2.46063E-1,-4.60937E-1
2.41851E-1,-4.61181E-1
2.35656E-1,-4.59320E-1
2.30957E-1,-4.59045E-1
2.27630E-1,-4.59930E-1
2.22717E-1,-4.60205E-1
2.17727E-1,-4.61135E-1
2.13607E-1,-4.61792E-1
2.09365E-1,-4.63272E-1
2.05673E-1,-4.64401E-1
2.03781E-1,-4.65271E-1
1.99585E-1,-4.64340E-1
1.97692E-1,-4.64569E-1
1.94122E-1,-4.66461E-1
1.91284E-1,-4.64477E-1
1.89056E-1,-4.63501E-1
1.86218E-1,-4.63653E-1
1.82464E-1,-4.61242E-1
1.77612E-1,-4.60235E-1
1.73538E-1,-4.55658E-1
1.68594E-1,-4.56008E-1
1.62597E-1,-4.56222E-1
1.55487E-1,-4.51904E-1
1.49963E-1,-4.54116E-1
1.43493E-1,-4.52026E-1
1.35864E-1,-4.53369E-1
1.29333E-1,-4.56329E-1
1.22985E-1,-4.57305E-1
1.16088E-1,-4.59259E-1
1.11694E-1,-4.62768E-1
1.06506E-1,-4.66735E-1
1.03561E-1,-4.70626E-1
0.99670E-1,-4.73190E-1
0.96572E-1,-4.77813E-1
0.95428E-1,-4.81643E-1
0.96038E-1,-4.83612E-1
0.96527E-1,-4.85473E-1
0.98419E-1,-4.8526E-1
0.97686E-1,-4.85443E-1
0.98663E-1,-4.85504E-1
0.99395E-1,-4.82269E-1
0.98419E-1,-4.78668E-1
0.98266E-1,-4.76562E-1
0.95809E-1,-4.71115E-1
0.95687E-1,-4.66598E-1
0.91033E-1,-4.62051E-1
0.85937E-1,-4.55688E-1
0.79315E-1,-4.51263E-1
0.71426E-1,-4.47647E-1
0.63354E-1,-4.45282E-1
0.54687E-1,-4.43115E-1
0.46264E-1,-4.44030E-1
0.36529E-1,-4.45312E-1
0.28259E-1,-4.46502E-1
0.20721E-1,-4.50515E-1
0.13275E-1,-4.56268E-1
0.06546E-1,-4.60357E-1
0.01541E-1,-4.66125E-1
-7.17163E-4,-4.72381E-1
-2.04467E-3,-4.78683E-1
-3.90625E-3,-4.83917E-1
-2.38037E-3,-4.89898E-1
0.00762E-1,-4.94201E-1
0.03448E-1,-4.96215E-1
0.07171E-1,-4.99054E-1
0.08880E-1,-4.98443E-1
0.14495E-1,-4.96246E-1
0.17578E-1,-4.92919E-1
0.21041E-1,-4.89013E-1
0.21575E-1,-4.84649E-1
0.23193E-1,-4.77447E-1
0.23605E-1,-4.70199E-1
0.21469E-1,-4.62707E-1
0.18066E-1,-4.54986E-1
0.12603E-1,-4.46960E-1
0.06591E-1,-4.42108E-1
-6.71386E-4,-4.35882E-1
-8.02612E-3,-4.30877E-1
-1.64489E-2,-4.27047E-1
-2.40631E-2,-4.25491E-1
-3.19519E-2,-4.24881E-1
-3.90014E-2,-4.24026E-1
-4.67987E-2,-4.25842E-1
-5.21240E-2,-4.26132E-1
-5.6427E-2,-4.29138E-1
-5.85632E-2,-4.31030E-1
-6.26831E-2,-4.32373E-1
-6.28356E-2,-4.33319E-1
-6.33544E-2,-4.35241E-1
-6.24389E-2,-4.34295E-1
-5.98449E-2,-4.32357E-1
-5.88836E-2,-4.30114E-1
-5.83343E-2,-4.25018E-1
-5.63964E-2,-4.19921E-1
-5.60607E-2,-4.12460E-1
-5.72967E-2,-4.05212E-1
-5.89752E-2,-3.98803E-1
-6.22863E-2,-3.89953E-1
-6.68335E-2,-3.81591E-1
-7.24487E-2,-3.71948E-1
-8.00781E-2,-3.64654E-1
-8.83483E-2,-3.57635E-1
-9.49401E-2,-3.52935E-1
-1.04812E-1,-3.49243E-1
-1.16104E-1,-3.46206E-1
-1.24908E-1,-3.44726E-1
-1.35147E-1,-3.44833E-1
-1.42028E-1,-3.44818E-1
-1.49597E-1,-3.48785E-1
-1.54113E-1,-3.51684E-1
-1.5979E-1,-3.53027E-1
-1.61071E-1,-3.57666E-1
-1.64520E-1,-3.61206E-1
-1.63818E-1,-3.62823E-1
-1.63177E-1,-3.65631E-1
-1.62002E-1,-3.67004E-1
-1.59545E-1,-3.65692E-1
-1.56234E-1,-3.64151E-1
-1.53793E-1,-3.59787E-1
-1.52221E-1,-3.53683E-1
-1.50695E-1,-3.48449E-1
-1.49704E-1,-3.42224E-1
-1.47277E-1,-3.35388E-1
-1.50726E-1,-3.27087E-1
-1.53045E-1,-3.19915E-1
-1.56707E-1,-3.10516E-1
-1.60675E-1,-3.05419E-1
-1.66839E-1,-2.97576E-1
-1.74377E-1,-2.93396E-1
-1.80007E-1,-2.89367E-1
-1.87713E-1,-2.86529E-1
-1.93496E-1,-2.84469E-1
-1.99920E-1,-2.85278E-1
-2.05093E-1,-2.84454E-1
-2.08557E-1,-2.84942E-1
-2.10632E-1,-2.88909E-1
-2.11486E-1,-2.90344E-1
-2.12768E-1,-2.91931E-1
-2.10235E-1,-2.93060E-1
-2.07183E-1,-2.93090E-1
-2.03613E-1,-2.93090E-1
-1.99707E-1,-2.91259E-1
-1.94168E-1,-2.87460E-1
-1.89163E-1,-2.82684E-1
-1.83868E-1,-2.75528E-1
-1.80313E-1,-2.68508E-1
-1.75964E-1,-2.58728E-1
-1.74285E-1,-2.49908E-1
-1.72332E-1,-2.39257E-1
-1.73584E-1,-2.26532E-1
-1.76391E-1,-2.17071E-1
-1.78741E-1,-2.05017E-1
-1.85089E-1,-1.95037E-1
-1.90544E-1,-1.86698E-1
-1.96403E-1,-1.77887E-1
-2.03292E-1,-1.71340E-1
-2.10678E-1,-1.66549E-1
-2.18215E-1,-1.62933E-1
-2.25158E-1,-1.60095E-1
-2.32421E-1,-1.59057E-1
-2.34924E-1,-1.59729E-1
-2.40387E-1,-1.59332E-1
-2.41989E-1,-1.60049E-1
-2.43072E-1,-1.61926E-1
-2.41928E-1,-1.62902E-1
-2.40951E-1,-1.62796E-1
-2.39059E-1,-1.62857E-1
-2.36358E-1,-1.61453E-1
-2.31384E-1,-1.59286E-1
-2.27661E-1,-1.55761E-1
-2.24212E-1,-1.50390E-1
-2.20794E-1,-1.4505E-1
-2.16583E-1,-1.38977E-1
-2.14523E-1,-1.32507E-1
-2.12600E-1,-1.23779E-1
-2.12905E-1,-1.16577E-1
-2.13279E-1,-1.09855E-1
-2.14645E-1,-1.01799E-1
-2.15683E-1,-9.70840E-2
-2.19406E-1,-9.10339E-2
-2.21389E-1,-8.58459E-2
-2.23815E-1,-8.38775E-2
-2.27340E-1,-8.12377E-2
-2.28149E-1,-7.95288E-2
-2.29721E-1,-8.03222E-2
-2.28836E-1,-8.13293E-2
-2.29690E-1,-7.99865E-2
-2.24792E-1,-8.22753E-2
-2.20817E-1,-8.21304E-2
-2.17186E-1,-8.30612E-2
-2.09350E-1,-8.33358E-2
-2.02270E-1,-8.00018E-2
-1.94122E-1,-7.67669E-2
-1.86782E-1,-7.32269E-2
-1.78779E-1,-6.76651E-2
-1.71142E-1,-6.01959E-2
-1.63726E-1,-5.40313E-2
-1.56890E-1,-4.35485E-2
-1.51855E-1,-3.20053E-2
-1.49154E-1,-2.24914E-2
-1.46698E-1,-1.21612E-2
-1.45378E-1,-1.37329E-3
-1.47430E-1,0.07934E-1
-1.49177E-1,0.17791E-1
-1.53205E-1,0.25032E-1
-1.56410E-1,0.32241E-1
-1.60774E-1,0.38253E-1
-1.65649E-1,0.41145E-1
-1.71188E-1,0.42190E-1
-1.74682E-1,0.41999E-1
-1.77719E-1,0.40557E-1
-1.80053E-1,0.39108E-1
-1.80450E-1,0.36209E-1
-1.79801E-1,0.33546E-1
-1.76658E-1,0.29533E-1
-1.72966E-1,0.27092E-1
-1.68418E-1,0.25375E-1
-1.62536E-1,0.2314E-1
-1.55654E-1,0.23384E-1
-1.47415E-1,0.25077E-1
-1.40647E-1,0.26725E-1
-1.33476E-1,0.30983E-1
-1.25312E-1,0.36514E-1
-1.19873E-1,4.14276E-2
-1.15158E-1,4.84466E-2
-1.11038E-1,5.65185E-2
-1.08772E-1,6.39267E-2
-1.07559E-1,7.22503E-2
-1.07856E-1,7.90100E-2
-1.09405E-1,8.68454E-2
-1.12178E-1,9.16061E-2
-1.14124E-1,9.59167E-2
-1.18080E-1,1.00692E-1
-1.21604E-1,1.01646E-1
-1.23748E-1,1.02691E-1
-1.26052E-1,1.01898E-1
-1.27685E-1,1.01440E-1
-1.27304E-1,0.98861E-1
-1.27136E-1,0.96519E-1
-1.23741E-1,9.29336E-2
-1.18583E-1,9.16137E-2
-1.14547E-1,8.99658E-2
-1.06063E-1,8.82911E-2
-9.82818E-2,8.85734E-2
-9.10530E-2,9.04655E-2
-8.33511E-2,9.14535E-2
-7.45773E-2,9.75036E-2
