CITIFILE A.01.00
#NA VERSION HP8753D.06.12
NAME DATA
VAR FREQ MAG 1601
DATA S[1,1] RI
SEG_LIST_BEGIN
SEG 100000000 200000000 1601
SEG_LIST_END
BEGIN
-5.06958E-1,2.00866E-1
-5.03112E-1,2.07458E-1
-4.99206E-1,2.14233E-1
-4.94995E-1,2.20581E-1
-4.90646E-1,2.26928E-1
-4.86618E-1,2.33215E-1
-4.82025E-1,2.39257E-1
-4.77844E-1,2.44995E-1
-4.73388E-1,2.50976E-1
-4.69055E-1,2.56866E-1
-4.64599E-1,2.62359E-1
-4.60144E-1,2.68005E-1
-4.55169E-1,2.72949E-1
-4.50714E-1,2.78656E-1
-4.46044E-1,2.83477E-1
-4.40826E-1,2.88406E-1
-4.35760E-1,2.93640E-1
-4.31060E-1,2.98217E-1
-4.26010E-1,3.02337E-1
-4.20593E-1,3.06961E-1
-4.14917E-1,3.11462E-1
-4.09744E-1,3.15216E-1
-4.04037E-1,3.19198E-1
-3.98559E-1,3.23242E-1
-3.92608E-1,3.27194E-1
-3.86337E-1,3.30825E-1
-3.80752E-1,3.34426E-1
-3.74725E-1,3.37890E-1
-3.68423E-1,3.41232E-1
-3.61694E-1,3.44619E-1
-3.55560E-1,3.47320E-1
-3.48663E-1,3.50311E-1
-3.41918E-1,3.53576E-1
-3.35083E-1,3.55835E-1
-3.28216E-1,3.58764E-1
-3.20892E-1,3.61282E-1
-3.13537E-1,3.63693E-1
-3.06106E-1,3.66043E-1
-2.98873E-1,3.68072E-1
-2.90847E-1,3.70269E-1
-2.83660E-1,3.72024E-1
-2.75711E-1,3.74343E-1
-2.67532E-1,3.75900E-1
-2.59552E-1,3.78067E-1
-2.51754E-1,3.79425E-1
-2.43774E-1,3.81057E-1
-2.35336E-1,3.82659E-1
-2.27081E-1,3.84017E-1
-2.18444E-1,3.85345E-1
-2.09808E-1,3.86398E-1
-2.01263E-1,3.87680E-1
-1.92688E-1,3.88793E-1
-1.83868E-1,3.89999E-1
-1.75231E-1,3.91174E-1
-1.66473E-1,3.91784E-1
-1.57653E-1,3.92608E-1
-1.48559E-1,3.93478E-1
-1.39648E-1,3.94500E-1
-1.30798E-1,3.95034E-1
-1.21856E-1,3.95401E-1
-1.12670E-1,3.95935E-1
-1.03469E-1,3.96423E-1
-9.40856E-2,3.96911E-1
-8.49609E-2,3.97003E-1
-7.58972E-2,3.97247E-1
-6.66198E-2,3.97522E-1
-5.79071E-2,3.97155E-1
-4.83551E-2,3.97430E-1
-3.94897E-2,3.97186E-1
-3.03649E-2,3.97018E-1
-2.14843E-2,3.96575E-1
-1.26647E-2,3.96453E-1
-3.82995E-3,3.95828E-1
0.05127E-1,3.95629E-1
0.13671E-1,3.94775E-1
0.22522E-1,3.94226E-1
0.31051E-1,3.93508E-1
0.39520E-1,3.92456E-1
0.47851E-1,3.91616E-1
0.56137E-1,3.90441E-1
0.64163E-1,3.89617E-1
0.72525E-1,3.8797E-1
0.80658E-1,3.86932E-1
0.88195E-1,3.85772E-1
0.96405E-1,3.83819E-1
1.03790E-1,3.82537E-1
1.11297E-1,3.80584E-1
1.19018E-1,3.78662E-1
1.26098E-1,3.76647E-1
1.33514E-1,3.74664E-1
1.40777E-1,3.72863E-1
1.47766E-1,3.70178E-1
1.54876E-1,3.68072E-1
1.61682E-1,3.65142E-1
1.68182E-1,3.62762E-1
1.74835E-1,3.59863E-1
1.81121E-1,3.57025E-1
1.875E-1,3.53790E-1
1.93847E-1,3.50433E-1
1.99981E-1,3.47320E-1
2.05658E-1,3.4375E-1
2.11608E-1,3.40011E-1
2.17376E-1,3.36441E-1
2.22656E-1,3.33038E-1
2.28057E-1,3.29086E-1
2.3349E-1,3.24707E-1
2.38601E-1,3.20327E-1
2.43774E-1,3.15872E-1
2.48870E-1,3.12179E-1
2.53448E-1,3.07312E-1
2.58270E-1,3.02307E-1
2.62908E-1,2.97485E-1
2.67425E-1,2.92572E-1
2.72033E-1,2.87536E-1
2.76428E-1,2.82104E-1
2.81005E-1,2.76947E-1
2.85095E-1,2.71179E-1
2.89367E-1,2.65869E-1
2.93518E-1,2.60131E-1
2.97546E-1,2.54089E-1
3.01513E-1,2.48413E-1
3.05603E-1,2.42523E-1
3.09295E-1,2.35992E-1
3.13232E-1,2.29858E-1
3.16833E-1,2.23571E-1
3.20587E-1,2.17590E-1
3.24188E-1,2.11059E-1
3.27789E-1,2.04162E-1
3.31604E-1,1.97814E-1
3.34716E-1,1.9104E-1
3.38241E-1,1.84539E-1
3.41629E-1,1.77841E-1
3.45169E-1,1.71020E-1
3.47915E-1,1.64062E-1
3.51486E-1,1.57501E-1
3.54446E-1,1.50360E-1
3.57513E-1,1.43844E-1
3.60626E-1,1.36383E-1
3.63342E-1,1.30096E-1
3.66363E-1,1.22985E-1
3.69262E-1,1.16363E-1
3.72009E-1,1.09375E-1
3.74786E-1,1.02569E-1
3.77471E-1,0.95611E-1
3.80157E-1,0.88867E-1
3.82720E-1,0.82519E-1
3.85284E-1,0.75561E-1
3.87939E-1,0.68969E-1
3.90258E-1,0.62561E-1
3.92547E-1,0.55847E-1
3.94622E-1,0.49133E-1
3.96789E-1,0.42968E-1
3.99078E-1,0.36682E-1
4.01092E-1,0.30426E-1
4.03076E-1,0.23834E-1
4.04724E-1,0.18005E-1
4.06738E-1,0.11718E-1
4.0802E-1,0.05737E-1
4.09545E-1,-3.96728E-4
4.11254E-1,-6.10351E-3
4.12506E-1,-1.16577E-2
4.13269E-1,-1.79901E-2
4.14505E-1,-2.31628E-2
4.15344E-1,-2.87475E-2
4.16168E-1,-3.45764E-2
4.16626E-1,-3.97644E-2
4.17114E-1,-4.52575E-2
4.17541E-1,-5.03845E-2
4.17511E-1,-5.56335E-2
4.17572E-1,-6.10656E-2
4.17663E-1,-6.58569E-2
4.17358E-1,-7.10449E-2
4.17083E-1,-7.59582E-2
4.16778E-1,-8.09021E-2
4.16107E-1,-8.57849E-2
4.15130E-1,-9.07592E-2
4.13970E-1,-9.51843E-2
4.13360E-1,-1.00067E-1
4.12185E-1,-1.04476E-1
4.10781E-1,-1.09237E-1
4.09133E-1,-1.13540E-1
4.08050E-1,-1.18454E-1
4.05975E-1,-1.22894E-1
4.04113E-1,-1.27471E-1
4.02267E-1,-1.31988E-1
4.00070E-1,-1.36398E-1
3.97613E-1,-1.40716E-1
3.9534E-1,-1.45202E-1
3.92730E-1,-1.49642E-1
3.89953E-1,-1.54205E-1
3.87344E-1,-1.58721E-1
3.84429E-1,-1.63085E-1
3.81500E-1,-1.67511E-1
3.78265E-1,-1.72058E-1
3.74969E-1,-1.75903E-1
3.7146E-1,-1.80358E-1
3.68240E-1,-1.84814E-1
3.64852E-1,-1.88873E-1
3.61267E-1,-1.93374E-1
3.57559E-1,-1.97448E-1
3.53653E-1,-2.02072E-1
3.49899E-1,-2.06146E-1
3.45901E-1,-2.10434E-1
3.42208E-1,-2.14492E-1
3.38272E-1,-2.1875E-1
3.34106E-1,-2.23114E-1
3.29925E-1,-2.26913E-1
3.25866E-1,-2.31430E-1
3.21624E-1,-2.35443E-1
3.17565E-1,-2.39379E-1
3.13400E-1,-2.43408E-1
3.09127E-1,-2.47192E-1
3.04687E-1,-2.51480E-1
3.00552E-1,-2.55279E-1
2.96264E-1,-2.59079E-1
2.91793E-1,-2.63000E-1
2.87719E-1,-2.66738E-1
2.83325E-1,-2.70675E-1
2.78930E-1,-2.74322E-1
2.74581E-1,-2.77679E-1
2.69958E-1,-2.81402E-1
2.65914E-1,-2.84896E-1
2.61489E-1,-2.88299E-1
2.57354E-1,-2.91564E-1
2.52990E-1,-2.94921E-1
2.48535E-1,-2.98339E-1
2.44110E-1,-3.01055E-1
2.39837E-1,-3.04443E-1
2.35244E-1,-3.07357E-1
2.31353E-1,-3.10333E-1
2.27142E-1,-3.13049E-1
2.22625E-1,-3.15994E-1
2.18139E-1,-3.18344E-1
2.13958E-1,-3.20861E-1
2.09381E-1,-3.23455E-1
2.05154E-1,-3.25210E-1
2.01019E-1,-3.27499E-1
1.96914E-1,-3.29742E-1
1.92398E-1,-3.31771E-1
1.88186E-1,-3.33557E-1
1.8396E-1,-3.35464E-1
1.79733E-1,-3.37112E-1
1.75445E-1,-3.38134E-1
1.71402E-1,-3.39599E-1
1.67099E-1,-3.40942E-1
1.62948E-1,-3.41964E-1
1.58706E-1,-3.43307E-1
1.54403E-1,-3.44268E-1
1.50390E-1,-3.44986E-1
1.45980E-1,-3.45565E-1
1.41494E-1,-3.46115E-1
1.37435E-1,-3.46801E-1
1.33148E-1,-3.46710E-1
1.28479E-1,-3.47091E-1
1.24542E-1,-3.46923E-1
1.19812E-1,-3.47015E-1
1.15631E-1,-3.47106E-1
1.10961E-1,-3.46954E-1
1.06781E-1,-3.46160E-1
1.02310E-1,-3.45703E-1
0.97702E-1,-3.44848E-1
0.93551E-1,-3.44345E-1
0.89126E-1,-3.43429E-1
0.84655E-1,-3.42346E-1
0.79788E-1,-3.41262E-1
0.75256E-1,-3.40164E-1
0.70907E-1,-3.38699E-1
0.66589E-1,-3.37585E-1
0.62042E-1,-3.35983E-1
0.57388E-1,-3.34732E-1
0.53115E-1,-3.32565E-1
0.48538E-1,-3.30917E-1
0.44158E-1,-3.28979E-1
0.39321E-1,-3.27133E-1
0.35141E-1,-3.25378E-1
0.30349E-1,-3.22998E-1
0.26077E-1,-3.20816E-1
0.21698E-1,-3.18527E-1
0.16815E-1,-3.16299E-1
0.12588E-1,-3.14178E-1
0.07888E-1,-3.11386E-1
0.03646E-1,-3.08731E-1
-8.23974E-4,-3.06381E-1
-5.00488E-3,-3.03558E-1
-9.39941E-3,-3.00903E-1
-1.40533E-2,-2.97988E-1
-1.77612E-2,-2.94982E-1
-2.20947E-2,-2.92327E-1
-2.62756E-2,-2.89215E-1
-3.05175E-2,-2.86407E-1
-3.45764E-2,-2.82775E-1
-3.85742E-2,-2.80029E-1
-4.27551E-2,-2.76779E-1
-4.67834E-2,-2.73452E-1
-5.04455E-2,-2.70034E-1
-5.40466E-2,-2.66601E-1
-5.80139E-2,-2.63458E-1
-6.14471E-2,-2.59994E-1
-6.50787E-2,-2.56897E-1
-6.84204E-2,-2.53280E-1
-7.2052E-2,-2.49557E-1
-7.55310E-2,-2.46368E-1
-7.83920E-2,-2.42500E-1
-8.16421E-2,-2.38685E-1
-8.46099E-2,-2.35412E-1
-8.77227E-2,-2.31567E-1
-9.06524E-2,-2.27966E-1
-9.34219E-2,-2.24121E-1
-9.54513E-2,-2.20161E-1
-9.84878E-2,-2.16697E-1
-1.01081E-1,-2.12486E-1
-1.03736E-1,-2.08831E-1
-1.05873E-1,-2.04780E-1
-1.07887E-1,-2.00775E-1
-1.10038E-1,-1.96662E-1
-1.11801E-1,-1.92962E-1
-1.13777E-1,-1.88850E-1
-1.15356E-1,-1.84631E-1
-1.17157E-1,-1.80236E-1
-1.18576E-1,-1.76223E-1
-1.19873E-1,-1.72058E-1
-1.21307E-1,-1.67846E-1
-1.22596E-1,-1.63772E-1
-1.23550E-1,-1.59462E-1
-1.24275E-1,-1.55082E-1
-1.25289E-1,-1.50703E-1
-1.25846E-1,-1.46095E-1
-1.26236E-1,-1.41937E-1
-1.26312E-1,-1.37336E-1
-1.26876E-1,-1.32919E-1
-1.27265E-1,-1.28471E-1
-1.27227E-1,-1.23924E-1
-1.27342E-1,-1.19377E-1
-1.26930E-1,-1.15074E-1
-1.2677E-1,-1.10549E-1
-1.26365E-1,-1.05835E-1
-1.26197E-1,-1.01493E-1
-1.25297E-1,-9.68933E-2
-1.24443E-1,-9.20791E-2
-1.23901E-1,-8.74404E-2
-1.22879E-1,-8.26950E-2
-1.22146E-1,-7.82928E-2
-1.20849E-1,-7.32421E-2
-1.19506E-1,-6.87408E-2
-1.18148E-1,-6.40869E-2
-1.16760E-1,-5.94177E-2
-1.15135E-1,-5.47485E-2
-1.13456E-1,-5.03921E-2
-1.11816E-1,-4.55474E-2
-1.10252E-1,-4.07791E-2
-1.08100E-1,-3.61633E-2
-1.06170E-1,-3.18222E-2
-1.04179E-1,-2.72445E-2
-1.02317E-1,-2.26936E-2
-9.99145E-2,-1.81045E-2
-9.76409E-2,-1.40113E-2
-9.51690E-2,-9.42611E-3
-9.29412E-2,-4.97436E-3
-9.00955E-2,-6.71386E-4
-8.77876E-2,0.34561E-2
-8.53958E-2,0.79269E-2
-8.25042E-2,1.2146E-2
-7.94448E-2,1.62200E-2
-7.67517E-2,2.05764E-2
-7.39364E-2,2.4086E-2
-7.11288E-2,2.82135E-2
-6.79931E-2,3.20663E-2
-6.51474E-2,3.58581E-2
-6.18820E-2,3.94592E-2
-5.86738E-2,4.32510E-2
-5.54657E-2,4.70848E-2
-5.20973E-2,5.03959E-2
-4.86640E-2,5.39550E-2
-4.52041E-2,5.69343E-2
-4.18548E-2,6.03218E-2
-3.80668E-2,6.36291E-2
-3.45153E-2,6.68869E-2
-3.08075E-2,6.99539E-2
-2.69241E-2,7.27996E-2
-2.33421E-2,7.54203E-2
-1.92642E-2,7.85293E-2
-1.53503E-2,8.09249E-2
-1.13983E-2,8.36715E-2
-7.28607E-3,8.59375E-2
-3.31115E-3,8.83331E-2
0.09155E-2,9.07974E-2
0.50277E-2,9.30099E-2
0.94528E-2,9.50546E-2
1.37176E-2,9.74273E-2
1.78070E-2,9.93118E-2
2.25143E-2,1.00929E-1
2.67105E-2,1.02951E-1
3.12118E-2,1.04774E-1
3.58429E-2,1.05957E-1
4.02679E-2,1.07986E-1
4.51965E-2,1.09310E-1
4.95834E-2,1.10870E-1
5.42831E-2,1.12098E-1
5.87539E-2,1.13777E-1
6.39152E-2,1.14975E-1
6.85348E-2,1.15936E-1
7.33795E-2,1.17141E-1
7.80105E-2,1.18164E-1
8.27102E-2,1.18873E-1
8.74786E-2,1.19949E-1
9.23614E-2,1.20773E-1
9.7229E-2,1.21353E-1
1.02172E-1,1.22161E-1
1.07009E-1,1.22375E-1
1.11801E-1,1.23062E-1
1.16561E-1,1.23443E-1
1.2117E-1,1.24069E-1
1.26388E-1,1.24176E-1
1.30935E-1,1.24298E-1
1.36123E-1,1.24710E-1
1.40792E-1,1.25091E-1
1.4534E-1,1.24893E-1
1.50116E-1,1.24603E-1
1.54830E-1,1.24740E-1
1.59606E-1,1.24717E-1
1.64413E-1,1.24755E-1
1.68533E-1,1.24603E-1
1.73309E-1,1.23886E-1
1.77551E-1,1.23680E-1
1.82052E-1,1.23184E-1
1.86523E-1,1.22543E-1
1.90826E-1,1.21902E-1
1.95159E-1,1.21261E-1
1.99188E-1,1.20529E-1
2.03628E-1,1.19689E-1
2.07565E-1,1.18759E-1
2.12127E-1,1.17691E-1
2.15896E-1,1.17004E-1
2.19909E-1,1.15707E-1
2.23968E-1,1.14410E-1
2.28179E-1,1.13037E-1
2.31811E-1,1.11877E-1
2.35992E-1,1.10275E-1
2.39410E-1,1.08840E-1
2.43621E-1,1.07177E-1
2.47345E-1,1.05468E-1
2.50839E-1,1.03607E-1
2.54470E-1,1.02005E-1
2.58117E-1,1.00235E-1
2.62008E-1,0.98175E-1
2.65274E-1,0.96130E-1
2.68676E-1,0.93856E-1
2.72216E-1,0.91644E-1
2.75405E-1,0.89462E-1
2.78732E-1,0.87356E-1
2.82318E-1,0.8461E-1
2.85339E-1,0.82565E-1
2.88436E-1,0.80108E-1
2.91687E-1,0.77072E-1
2.94723E-1,0.74661E-1
2.98065E-1,0.71777E-1
3.00994E-1,0.69351E-1
3.04122E-1,0.66452E-1
3.07128E-1,0.63736E-1
3.10333E-1,0.6073E-1
3.12988E-1,0.57708E-1
3.16101E-1,0.54931E-1
3.18939E-1,0.52002E-1
3.21716E-1,0.48904E-1
3.24554E-1,0.45929E-1
3.27148E-1,0.42724E-1
3.29986E-1,0.39276E-1
3.32702E-1,0.36163E-1
3.35266E-1,0.32989E-1
3.37921E-1,0.29693E-1
3.40362E-1,0.26550E-1
3.43048E-1,0.23254E-1
3.45535E-1,0.19851E-1
3.47991E-1,0.16525E-1
3.50326E-1,0.13214E-1
3.52722E-1,0.09826E-1
3.54980E-1,0.06393E-1
3.57238E-1,0.02868E-1
3.59588E-1,-3.20434E-4
3.61465E-1,-3.63159E-3
3.63616E-1,-6.98852E-3
3.65829E-1,-1.06353E-2
3.67813E-1,-1.40228E-2
3.69751E-1,-1.77612E-2
3.71490E-1,-2.09350E-2
3.73321E-1,-2.43682E-2
3.75152E-1,-2.80761E-2
3.76892E-1,-3.15551E-2
3.78356E-1,-3.50647E-2
3.79913E-1,-3.84216E-2
3.81622E-1,-4.21752E-2
3.83087E-1,-4.56237E-2
3.84674E-1,-4.91638E-2
3.85833E-1,-5.26123E-2
3.87329E-1,-5.60302E-2
3.88397E-1,-5.97229E-2
3.89709E-1,-6.33850E-2
3.90991E-1,-6.71997E-2
3.91876E-1,-7.04345E-2
3.93035E-1,-7.38220E-2
3.94348E-1,-7.77282E-2
3.95111E-1,-8.12683E-2
3.95813E-1,-8.49914E-2
3.97003E-1,-8.82263E-2
3.97827E-1,-9.23156E-2
3.98345E-1,-9.58557E-2
3.99169E-1,-9.93499E-2
3.99871E-1,-1.02951E-1
4.00375E-1,-1.06597E-1
4.00863E-1,-1.10534E-1
4.01641E-1,-1.13967E-1
4.01870E-1,-1.17736E-1
4.02313E-1,-1.21307E-1
4.02618E-1,-1.25091E-1
4.02923E-1,-1.28662E-1
4.02923E-1,-1.32476E-1
4.03350E-1,-1.36108E-1
4.03411E-1,-1.39648E-1
4.03778E-1,-1.43402E-1
4.03747E-1,-1.47033E-1
4.04083E-1,-1.50634E-1
4.03564E-1,-1.54357E-1
4.03778E-1,-1.57714E-1
4.03595E-1,-1.61529E-1
4.03839E-1,-1.65252E-1
4.03472E-1,-1.68762E-1
4.03289E-1,-1.72485E-1
4.03091E-1,-1.75842E-1
4.02771E-1,-1.79565E-1
4.02648E-1,-1.82830E-1
4.02435E-1,-1.86798E-1
4.01916E-1,-1.90002E-1
4.01580E-1,-1.93725E-1
4.01214E-1,-1.97021E-1
4.00451E-1,-2.00653E-1
4.00116E-1,-2.04193E-1
3.99200E-1,-2.07214E-1
3.98788E-1,-2.10937E-1
3.97934E-1,-2.14080E-1
3.97094E-1,-2.17788E-1
3.96484E-1,-2.21557E-1
3.95629E-1,-2.24792E-1
3.95172E-1,-2.28057E-1
3.94012E-1,-2.31414E-1
3.92669E-1,-2.34771E-1
3.91693E-1,-2.38067E-1
3.90472E-1,-2.41333E-1
3.89465E-1,-2.44659E-1
3.88244E-1,-2.47894E-1
3.87237E-1,-2.51220E-1
3.85559E-1,-2.54425E-1
3.84429E-1,-2.57782E-1
3.83178E-1,-2.60833E-1
3.81469E-1,-2.64282E-1
3.80157E-1,-2.67700E-1
3.79150E-1,-2.70843E-1
3.77136E-1,-2.73742E-1
3.75732E-1,-2.76977E-1
3.74420E-1,-2.80395E-1
3.72589E-1,-2.83355E-1
3.71093E-1,-2.86865E-1
3.69537E-1,-2.89794E-1
3.67889E-1,-2.92907E-1
3.66058E-1,-2.96325E-1
3.64166E-1,-2.99346E-1
3.62304E-1,-3.02520E-1
3.60443E-1,-3.05389E-1
3.58551E-1,-3.08593E-1
3.56735E-1,-3.11950E-1
3.54583E-1,-3.15002E-1
3.52600E-1,-3.18054E-1
3.50494E-1,-3.21228E-1
3.48571E-1,-3.24340E-1
3.46771E-1,-3.27301E-1
3.44604E-1,-3.30474E-1
3.42834E-1,-3.33435E-1
3.40606E-1,-3.36212E-1
3.38470E-1,-3.39202E-1
3.36273E-1,-3.42468E-1
3.33923E-1,-3.45275E-1
3.31848E-1,-3.48053E-1
3.29925E-1,-3.50524E-1
3.27453E-1,-3.53546E-1
3.25347E-1,-3.56414E-1
3.23303E-1,-3.59008E-1
3.21014E-1,-3.61785E-1
3.18847E-1,-3.64318E-1
3.16864E-1,-3.66943E-1
3.14300E-1,-3.69537E-1
3.12316E-1,-3.72131E-1
3.10089E-1,-3.74328E-1
3.07998E-1,-3.76617E-1
3.05816E-1,-3.79028E-1
3.03466E-1,-3.81286E-1
3.01147E-1,-3.83697E-1
2.99072E-1,-3.85711E-1
2.96569E-1,-3.87603E-1
2.93884E-1,-3.89892E-1
2.91885E-1,-3.91723E-1
2.89184E-1,-3.93768E-1
2.86712E-1,-3.95538E-1
2.84668E-1,-3.97369E-1
2.81616E-1,-3.99078E-1
2.78961E-1,-4.00970E-1
2.76702E-1,-4.02435E-1
2.73437E-1,-4.04052E-1
2.71057E-1,-4.05548E-1
2.67974E-1,-4.07165E-1
2.65167E-1,-4.08477E-1
2.62146E-1,-4.0979E-1
2.58911E-1,-4.11224E-1
2.56164E-1,-4.12384E-1
2.52838E-1,-4.13238E-1
2.49572E-1,-4.14123E-1
2.46582E-1,-4.15313E-1
2.43377E-1,-4.16534E-1
2.39959E-1,-4.17358E-1
2.36175E-1,-4.18151E-1
2.33062E-1,-4.19372E-1
2.29522E-1,-4.20135E-1
2.25769E-1,-4.20654E-1
2.22259E-1,-4.21539E-1
2.18261E-1,-4.22485E-1
2.14630E-1,-4.23126E-1
2.10937E-1,-4.23584E-1
2.06848E-1,-4.24408E-1
2.02911E-1,-4.25079E-1
1.98867E-1,-4.25796E-1
1.94839E-1,-4.26071E-1
1.90429E-1,-4.26788E-1
1.86340E-1,-4.27612E-1
1.81884E-1,-4.28009E-1
1.77642E-1,-4.28772E-1
1.73309E-1,-4.28894E-1
1.68426E-1,-4.29473E-1
1.64032E-1,-4.30358E-1
1.59668E-1,-4.30755E-1
1.54937E-1,-4.31152E-1
1.50451E-1,-4.31579E-1
1.45721E-1,-4.32342E-1
1.41082E-1,-4.32495E-1
1.36261E-1,-4.33105E-1
1.31805E-1,-4.33197E-1
1.26861E-1,-4.33319E-1
1.22467E-1,-4.33868E-1
1.17706E-1,-4.34539E-1
1.13220E-1,-4.34692E-1
1.08734E-1,-4.34997E-1
1.04400E-1,-4.35180E-1
0.99609E-1,-4.35607E-1
0.95092E-1,-4.35943E-1
0.90667E-1,-4.35913E-1
0.86120E-1,-4.36523E-1
0.81848E-1,-4.36309E-1
0.77606E-1,-4.36584E-1
0.72891E-1,-4.36965E-1
0.68512E-1,-4.37072E-1
0.64407E-1,-4.36965E-1
0.60150E-1,-4.37347E-1
0.55877E-1,-4.37042E-1
0.51635E-1,-4.36981E-1
0.47271E-1,-4.37347E-1
0.43457E-1,-4.37133E-1
0.39001E-1,-4.36737E-1
0.35247E-1,-4.36340E-1
0.30914E-1,-4.36370E-1
0.27282E-1,-4.35913E-1
0.23407E-1,-4.35607E-1
0.19561E-1,-4.35455E-1
0.15502E-1,-4.35119E-1
0.11535E-1,-4.34661E-1
0.07843E-1,-4.33990E-1
0.04394E-1,-4.33105E-1
0.00732E-1,-4.32922E-1
-2.68554E-3,-4.31976E-1
-6.25610E-3,-4.31091E-1
-9.94873E-3,-4.30297E-1
-1.34582E-2,-4.29290E-1
-1.70593E-2,-4.28344E-1
-2.02636E-2,-4.27398E-1
-2.34985E-2,-4.263E-1
-2.68554E-2,-4.25262E-1
-2.99377E-2,-4.24041E-1
-3.34777E-2,-4.22912E-1
-3.64379E-2,-4.21600E-1
-3.99322E-2,-4.20105E-1
-4.28772E-2,-4.18808E-1
-4.62951E-2,-4.17129E-1
-4.92858E-2,-4.15893E-1
-5.25207E-2,-4.13940E-1
-5.56945E-2,-4.12170E-1
-5.87768E-2,-4.10217E-1
-6.20727E-2,-4.08538E-1
-6.50939E-2,-4.06860E-1
-6.79931E-2,-4.04541E-1
-7.08313E-2,-4.02923E-1
-7.40661E-2,-4.00665E-1
-7.69043E-2,-3.98834E-1
-8.01391E-2,-3.96331E-1
-8.31298E-2,-3.93951E-1
-8.59375E-2,-3.91693E-1
-8.87451E-2,-3.89404E-1
-9.17663E-2,-3.86718E-1
-9.47265E-2,-3.84033E-1
-9.76257E-2,-3.82049E-1
-1.00372E-1,-3.79058E-1
-1.03302E-1,-3.76251E-1
-1.06048E-1,-3.73474E-1
-1.08856E-1,-3.70819E-1
-1.11816E-1,-3.67675E-1
-1.14227E-1,-3.64868E-1
-1.17126E-1,-3.61770E-1
-1.19964E-1,-3.58688E-1
-1.22528E-1,-3.55514E-1
-1.25244E-1,-3.52493E-1
-1.27792E-1,-3.49182E-1
-1.30523E-1,-3.45794E-1
-1.33102E-1,-3.42483E-1
-1.35726E-1,-3.39218E-1
-1.38458E-1,-3.35464E-1
-1.41220E-1,-3.32138E-1
-1.44119E-1,-3.28414E-1
-1.46316E-1,-3.24768E-1
-1.49200E-1,-3.21167E-1
-1.51794E-1,-3.17138E-1
-1.54205E-1,-3.13537E-1
-1.57135E-1,-3.09814E-1
-1.59515E-1,-3.06030E-1
-1.62384E-1,-3.02124E-1
-1.64611E-1,-2.98034E-1
-1.67480E-1,-2.93975E-1
-1.69830E-1,-2.90130E-1
-1.72180E-1,-2.86071E-1
-1.74926E-1,-2.81921E-1
-1.77673E-1,-2.78045E-1
-1.79916E-1,-2.73788E-1
-1.82006E-1,-2.69531E-1
-1.84768E-1,-2.65319E-1
-1.87393E-1,-2.61367E-1
-1.89483E-1,-2.57217E-1
-1.91909E-1,-2.52685E-1
-1.94397E-1,-2.48535E-1
-1.96807E-1,-2.44354E-1
-1.98944E-1,-2.40463E-1
-2.01477E-1,-2.36206E-1
-2.03460E-1,-2.32086E-1
-2.05764E-1,-2.2789E-1
-2.07977E-1,-2.23770E-1
-2.10113E-1,-2.19863E-1
-2.12265E-1,-2.15713E-1
-2.14103E-1,-2.11586E-1
-2.16125E-1,-2.07641E-1
-2.18261E-1,-2.03628E-1
-2.20123E-1,-1.99737E-1
-2.21557E-1,-1.95739E-1
-2.23571E-1,-1.91833E-1
-2.25219E-1,-1.87957E-1
-2.26562E-1,-1.83746E-1
-2.28179E-1,-1.80084E-1
-2.29827E-1,-1.76330E-1
-2.31292E-1,-1.72180E-1
-2.32574E-1,-1.68426E-1
-2.33413E-1,-1.64794E-1
-2.34634E-1,-1.61148E-1
-2.35122E-1,-1.57424E-1
-2.36190E-1,-1.53884E-1
-2.36694E-1,-1.50268E-1
-2.37396E-1,-1.46514E-1
-2.37823E-1,-1.43066E-1
-2.38388E-1,-1.39358E-1
-2.38510E-1,-1.35711E-1
-2.38647E-1,-1.32232E-1
-2.38769E-1,-1.28463E-1
-2.38510E-1,-1.25061E-1
-2.38479E-1,-1.21276E-1
-2.37945E-1,-1.1763E-1
-2.37381E-1,-1.13769E-1
-2.36862E-1,-1.10748E-1
-2.36480E-1,-1.06597E-1
-2.35519E-1,-1.02554E-1
-2.34527E-1,-9.88616E-2
-2.33413E-1,-9.49859E-2
-2.32124E-1,-9.14688E-2
-2.30972E-1,-8.73718E-2
-2.29431E-1,-8.34350E-2
-2.28118E-1,-7.94830E-2
-2.26776E-1,-7.54241E-2
-2.25021E-1,-7.09381E-2
-2.22991E-1,-6.67114E-2
-2.21160E-1,-6.24389E-2
-2.19345E-1,-5.82733E-2
-2.17575E-1,-5.42297E-2
-2.15118E-1,-4.94689E-2
-2.13409E-1,-4.48150E-2
-2.11059E-1,-4.02679E-2
-2.08740E-1,-3.57208E-2
-2.06420E-1,-3.13568E-2
-2.03987E-1,-2.67028E-2
-2.01599E-1,-2.17056E-2
-1.99134E-1,-1.67465E-2
-1.96678E-1,-1.20925E-2
-1.94191E-1,-7.20977E-3
-1.92016E-1,-2.05230E-3
-1.89056E-1,0.03242E-1
-1.86531E-1,0.07698E-1
-1.84265E-1,0.12916E-1
-1.81350E-1,0.17593E-1
-1.79061E-1,0.22888E-1
-1.76467E-1,0.28167E-1
-1.73980E-1,0.33340E-1
-1.71493E-1,0.38467E-1
-1.68960E-1,0.43258E-1
-1.66473E-1,0.48385E-1
-1.64070E-1,0.53192E-1
-1.61460E-1,0.58342E-1
-1.58966E-1,0.63629E-1
-1.56433E-1,0.68435E-1
-1.53778E-1,0.73310E-1
-1.51733E-1,0.77934E-1
-1.49261E-1,0.82710E-1
-1.46759E-1,0.87142E-1
-1.44256E-1,0.91873E-1
-1.41845E-1,0.96199E-1
-1.39518E-1,1.00540E-1
-1.37138E-1,1.04995E-1
-1.34697E-1,1.09161E-1
