CITIFILE A.01.00
#NA VERSION HP8753D.06.12
NAME DATA
VAR FREQ MAG 1601
DATA S[1,1] RI
SEG_LIST_BEGIN
SEG 100000000 200000000 1601
SEG_LIST_END
BEGIN
-4.28680E-1,-1.64947E-1
-4.30419E-1,-1.60705E-1
-4.31945E-1,-1.56555E-1
-4.33380E-1,-1.52374E-1
-4.34814E-1,-1.48162E-1
-4.36615E-1,-1.43814E-1
-4.37866E-1,-1.39404E-1
-4.39163E-1,-1.35559E-1
-4.40704E-1,-1.30935E-1
-4.42153E-1,-1.26907E-1
-4.43267E-1,-1.22375E-1
-4.44564E-1,-1.18377E-1
-4.45388E-1,-1.14196E-1
-4.46456E-1,-1.09878E-1
-4.47662E-1,-1.05606E-1
-4.48638E-1,-1.01287E-1
-4.49111E-1,-9.67102E-2
-4.50088E-1,-9.27124E-2
-4.51065E-1,-8.84094E-2
-4.51721E-1,-8.42742E-2
-4.52270E-1,-8.00018E-2
-4.52987E-1,-7.60040E-2
-4.53476E-1,-7.17315E-2
-4.53781E-1,-6.72454E-2
-4.53994E-1,-6.31103E-2
-4.54513E-1,-5.86395E-2
-4.54284E-1,-5.44281E-2
-4.54483E-1,-5.03845E-2
-4.54361E-1,-4.60662E-2
-4.54376E-1,-4.15039E-2
-4.54284E-1,-3.7323E-2
-4.53918E-1,-3.33557E-2
-4.53186E-1,-2.88391E-2
-4.52835E-1,-2.46124E-2
-4.52087E-1,-2.01721E-2
-4.51263E-1,-1.58386E-2
-4.50592E-1,-1.15051E-2
-4.49707E-1,-7.17163E-3
-4.48623E-1,-2.70080E-3
-4.47235E-1,0.01632E-1
-4.46456E-1,0.05981E-1
-4.45007E-1,0.10803E-1
-4.43618E-1,0.15014E-1
-4.42276E-1,0.19500E-1
-4.40750E-1,0.23925E-1
-4.39178E-1,0.28442E-1
-4.37347E-1,0.33111E-1
-4.35684E-1,0.37323E-1
-4.33792E-1,0.41931E-1
-4.31854E-1,0.46478E-1
-4.29885E-1,0.51162E-1
-4.27612E-1,0.55664E-1
-4.25613E-1,0.60241E-1
-4.23400E-1,0.64849E-1
-4.21218E-1,0.69564E-1
-4.18777E-1,0.74035E-1
-4.16412E-1,0.78857E-1
-4.13925E-1,0.83526E-1
-4.11453E-1,0.88165E-1
-4.08645E-1,0.92697E-1
-4.06311E-1,0.97381E-1
-4.03442E-1,1.02188E-1
-4.00573E-1,1.07193E-1
-3.97766E-1,1.11511E-1
-3.94622E-1,1.16668E-1
-3.91784E-1,1.21368E-1
-3.88671E-1,1.25793E-1
-3.85437E-1,1.30645E-1
-3.82492E-1,1.35482E-1
-3.79074E-1,1.40335E-1
-3.75854E-1,1.44683E-1
-3.72451E-1,1.49429E-1
-3.69278E-1,1.54037E-1
-3.65753E-1,1.58874E-1
-3.62289E-1,1.63192E-1
-3.58688E-1,1.67953E-1
-3.55056E-1,1.72409E-1
-3.51440E-1,1.76803E-1
-3.47641E-1,1.81594E-1
-3.44024E-1,1.86203E-1
-3.40271E-1,1.90689E-1
-3.36608E-1,1.94992E-1
-3.32855E-1,1.99493E-1
-3.29208E-1,2.03933E-1
-3.24996E-1,2.07809E-1
-3.21609E-1,2.11959E-1
-3.17504E-1,2.16415E-1
-3.13385E-1,2.20214E-1
-3.09555E-1,2.24380E-1
-3.05099E-1,2.28530E-1
-3.01239E-1,2.32788E-1
-2.97073E-1,2.36816E-1
-2.93197E-1,2.40753E-1
-2.88467E-1,2.44369E-1
-2.84423E-1,2.48413E-1
-2.79815E-1,2.51983E-1
-2.75909E-1,2.55798E-1
-2.71057E-1,2.59307E-1
-2.66632E-1,2.62756E-1
-2.62039E-1,2.66113E-1
-2.57690E-1,2.69561E-1
-2.52929E-1,2.73117E-1
-2.48428E-1,2.76168E-1
-2.44033E-1,2.79434E-1
-2.39135E-1,2.82745E-1
-2.34298E-1,2.85507E-1
-2.29797E-1,2.88421E-1
-2.24853E-1,2.91275E-1
-2.20092E-1,2.94342E-1
-2.15408E-1,2.97042E-1
-2.10296E-1,2.99453E-1
-2.05322E-1,3.02002E-1
-2.00363E-1,3.04885E-1
-1.95449E-1,3.07128E-1
-1.90383E-1,3.09616E-1
-1.85165E-1,3.11630E-1
-1.79946E-1,3.13888E-1
-1.74652E-1,3.16299E-1
-1.69342E-1,3.18145E-1
-1.64123E-1,3.19885E-1
-1.58660E-1,3.22067E-1
-1.53244E-1,3.23944E-1
-1.47583E-1,3.25592E-1
-1.42150E-1,3.26782E-1
-1.36627E-1,3.28537E-1
-1.31012E-1,3.30322E-1
-1.25457E-1,3.32016E-1
-1.19720E-1,3.33190E-1
-1.13678E-1,3.34320E-1
-1.07971E-1,3.35617E-1
-1.02233E-1,3.36807E-1
-9.61761E-2,3.38317E-1
-9.01031E-2,3.39309E-1
-8.41369E-2,3.40057E-1
-7.80334E-2,3.41278E-1
-7.18994E-2,3.41857E-1
-6.57348E-2,3.43109E-1
-5.96313E-2,3.43444E-1
-5.35125E-2,3.44299E-1
-4.74090E-2,3.45321E-1
-4.11987E-2,3.45672E-1
-3.52172E-2,3.46313E-1
-2.88085E-2,3.47183E-1
-2.25830E-2,3.47091E-1
-1.65100E-2,3.47930E-1
-1.00860E-2,3.48327E-1
-3.75366E-3,3.48587E-1
0.02517E-1,3.49105E-1
0.08529E-1,3.49533E-1
0.15106E-1,3.49517E-1
0.21499E-1,3.49609E-1
0.27755E-1,3.50143E-1
0.33966E-1,3.50280E-1
0.40374E-1,3.50433E-1
0.46691E-1,3.50372E-1
0.52795E-1,3.50189E-1
0.59143E-1,3.50738E-1
0.65033E-1,3.50585E-1
0.71228E-1,3.50433E-1
0.77484E-1,3.50128E-1
0.83190E-1,3.50189E-1
0.89019E-1,3.49609E-1
0.95123E-1,3.49823E-1
1.00860E-1,3.49456E-1
1.06689E-1,3.48724E-1
1.12243E-1,3.48632E-1
1.17889E-1,3.48022E-1
1.23321E-1,3.47564E-1
1.2854E-1,3.46847E-1
1.34094E-1,3.46038E-1
1.39556E-1,3.45474E-1
1.44729E-1,3.44757E-1
1.49612E-1,3.4375E-1
1.54937E-1,3.42865E-1
1.60049E-1,3.41827E-1
1.64886E-1,3.40576E-1
1.69342E-1,3.39447E-1
1.74316E-1,3.38012E-1
1.78924E-1,3.37066E-1
1.83807E-1,3.35662E-1
1.88140E-1,3.33923E-1
1.93115E-1,3.32336E-1
1.96960E-1,3.30566E-1
2.01416E-1,3.28918E-1
2.05719E-1,3.27117E-1
2.10327E-1,3.25042E-1
2.14294E-1,3.23181E-1
2.18719E-1,3.20739E-1
2.22930E-1,3.18573E-1
2.26898E-1,3.15979E-1
2.31353E-1,3.13201E-1
2.35076E-1,3.10791E-1
2.39135E-1,3.08288E-1
2.43225E-1,3.05206E-1
2.47192E-1,3.02642E-1
2.51068E-1,2.99682E-1
2.54882E-1,2.96203E-1
2.59002E-1,2.93319E-1
2.62863E-1,2.89978E-1
2.66601E-1,2.86758E-1
2.70477E-1,2.82989E-1
2.74124E-1,2.79525E-1
2.77771E-1,2.76062E-1
2.82119E-1,2.72201E-1
2.85705E-1,2.68676E-1
2.89306E-1,2.64831E-1
2.93060E-1,2.61047E-1
2.96600E-1,2.56774E-1
3.00552E-1,2.52914E-1
3.04504E-1,2.48962E-1
3.08288E-1,2.44995E-1
3.12316E-1,2.40783E-1
3.15765E-1,2.36633E-1
3.19793E-1,2.32666E-1
3.23516E-1,2.28393E-1
3.27362E-1,2.24273E-1
3.31207E-1,2.20001E-1
3.35235E-1,2.15332E-1
3.39141E-1,2.11120E-1
3.42926E-1,2.06787E-1
3.46649E-1,2.02728E-1
3.50616E-1,1.98486E-1
3.54248E-1,1.94397E-1
3.58001E-1,1.89544E-1
3.61694E-1,1.85668E-1
3.65570E-1,1.81274E-1
3.69262E-1,1.77185E-1
3.72909E-1,1.7276E-1
3.76678E-1,1.68609E-1
3.80111E-1,1.64352E-1
3.84063E-1,1.60171E-1
3.87390E-1,1.55975E-1
3.90960E-1,1.52160E-1
3.94226E-1,1.48193E-1
3.97460E-1,1.43951E-1
4.00695E-1,1.39831E-1
4.04083E-1,1.36077E-1
4.06982E-1,1.31988E-1
4.10308E-1,1.27777E-1
4.13208E-1,1.24084E-1
4.15847E-1,1.19934E-1
4.18731E-1,1.16180E-1
4.21417E-1,1.12609E-1
4.24346E-1,1.08673E-1
4.26818E-1,1.04705E-1
4.29809E-1,1.00952E-1
4.32006E-1,0.97198E-1
4.34478E-1,0.93475E-1
4.36676E-1,0.89599E-1
4.38934E-1,0.85907E-1
4.41009E-1,0.82489E-1
4.43298E-1,0.78491E-1
4.45129E-1,0.74768E-1
4.47052E-1,0.70892E-1
4.487E-1,0.67535E-1
4.50103E-1,0.63476E-1
4.51538E-1,0.59570E-1
4.53125E-1,0.55847E-1
4.54544E-1,0.51864E-1
4.56054E-1,0.48156E-1
4.57122E-1,0.44555E-1
4.58435E-1,0.40496E-1
4.59503E-1,0.36560E-1
4.60662E-1,0.32562E-1
4.61273E-1,0.28442E-1
4.62036E-1,0.24292E-1
4.62860E-1,0.20538E-1
4.63562E-1,0.16449E-1
4.64294E-1,0.12054E-1
4.65057E-1,0.07995E-1
4.65393E-1,0.03814E-1
4.66156E-1,-2.74658E-4
4.66201E-1,-4.50134E-3
4.66400E-1,-8.66699E-3
4.67071E-1,-1.33667E-2
4.66888E-1,-1.75170E-2
4.67224E-1,-2.20642E-2
4.67620E-1,-2.63061E-2
4.67346E-1,-3.08532E-2
4.67437E-1,-3.57360E-2
4.67376E-1,-3.95813E-2
4.67498E-1,-4.44030E-2
4.67407E-1,-4.90417E-2
4.67620E-1,-5.34668E-2
4.67407E-1,-5.81665E-2
4.67102E-1,-6.28356E-2
4.67102E-1,-6.73980E-2
4.66522E-1,-7.20825E-2
4.66461E-1,-7.65075E-2
4.66217E-1,-8.12072E-2
4.65942E-1,-8.58154E-2
4.65728E-1,-9.09729E-2
4.65118E-1,-9.52758E-2
4.64752E-1,-9.99450E-2
4.64416E-1,-1.04797E-1
4.64080E-1,-1.09130E-1
4.63714E-1,-1.14196E-1
4.63317E-1,-1.18743E-1
4.62768E-1,-1.23870E-1
4.62280E-1,-1.28173E-1
4.61700E-1,-1.32995E-1
4.61273E-1,-1.37939E-1
4.60907E-1,-1.42242E-1
4.60144E-1,-1.46820E-1
4.59533E-1,-1.51733E-1
4.58557E-1,-1.56189E-1
4.58129E-1,-1.60583E-1
4.57366E-1,-1.65283E-1
4.57275E-1,-1.69433E-1
4.56268E-1,-1.74408E-1
4.55322E-1,-1.78558E-1
4.54711E-1,-1.83258E-1
4.54162E-1,-1.87683E-1
4.53399E-1,-1.92047E-1
4.52514E-1,-1.96594E-1
4.51782E-1,-2.00927E-1
4.50927E-1,-2.05261E-1
4.50103E-1,-2.09320E-1
4.49157E-1,-2.13623E-1
4.48181E-1,-2.17926E-1
4.47235E-1,-2.21984E-1
4.45587E-1,-2.26196E-1
4.44946E-1,-2.30682E-1
4.43603E-1,-2.34527E-1
4.42718E-1,-2.38464E-1
4.41131E-1,-2.42584E-1
4.40307E-1,-2.46582E-1
4.38873E-1,-2.50244E-1
4.37652E-1,-2.53936E-1
4.36035E-1,-2.58056E-1
4.34326E-1,-2.61779E-1
4.33227E-1,-2.65319E-1
4.31457E-1,-2.69165E-1
4.30328E-1,-2.72460E-1
4.28497E-1,-2.76367E-1
4.26910E-1,-2.80090E-1
4.25170E-1,-2.83660E-1
4.23645E-1,-2.87170E-1
4.21966E-1,-2.90527E-1
4.20074E-1,-2.93701E-1
4.18090E-1,-2.97302E-1
4.16107E-1,-3.00720E-1
4.13970E-1,-3.03680E-1
4.12200E-1,-3.07067E-1
4.09881E-1,-3.10272E-1
4.07836E-1,-3.13568E-1
4.05273E-1,-3.16528E-1
4.02984E-1,-3.19732E-1
4.00665E-1,-3.22967E-1
3.97888E-1,-3.25714E-1
3.95416E-1,-3.28796E-1
3.92608E-1,-3.31939E-1
3.89984E-1,-3.34716E-1
3.87176E-1,-3.37829E-1
3.84277E-1,-3.40515E-1
3.81622E-1,-3.43536E-1
3.78631E-1,-3.46252E-1
3.75488E-1,-3.48968E-1
3.72711E-1,-3.51867E-1
3.69628E-1,-3.54553E-1
3.66027E-1,-3.57116E-1
3.62854E-1,-3.60046E-1
3.59893E-1,-3.62548E-1
3.56567E-1,-3.65051E-1
3.53393E-1,-3.68225E-1
3.49899E-1,-3.70651E-1
3.46481E-1,-3.73382E-1
3.43002E-1,-3.75717E-1
3.39309E-1,-3.78524E-1
3.36059E-1,-3.81134E-1
3.32595E-1,-3.83606E-1
3.28918E-1,-3.86367E-1
3.25256E-1,-3.88717E-1
3.21716E-1,-3.91555E-1
3.17825E-1,-3.93814E-1
3.14086E-1,-3.96225E-1
3.10348E-1,-3.98727E-1
3.06701E-1,-4.01062E-1
3.02734E-1,-4.03808E-1
2.99011E-1,-4.06265E-1
2.95303E-1,-4.08447E-1
2.91534E-1,-4.10720E-1
2.87597E-1,-4.13085E-1
2.83721E-1,-4.15283E-1
2.7948E-1,-4.17755E-1
2.76031E-1,-4.20043E-1
2.71820E-1,-4.21844E-1
2.68600E-1,-4.24377E-1
2.64709E-1,-4.26269E-1
2.61108E-1,-4.28527E-1
2.57446E-1,-4.30572E-1
2.53448E-1,-4.32647E-1
2.49664E-1,-4.34631E-1
2.46154E-1,-4.36752E-1
2.42111E-1,-4.38324E-1
2.38830E-1,-4.40200E-1
2.35122E-1,-4.41803E-1
2.31628E-1,-4.43206E-1
2.27829E-1,-4.45236E-1
2.24334E-1,-4.46456E-1
2.20855E-1,-4.48181E-1
2.17544E-1,-4.49462E-1
2.14157E-1,-4.51019E-1
2.10083E-1,-4.52423E-1
2.06924E-1,-4.53414E-1
2.03506E-1,-4.54605E-1
1.99661E-1,-4.55795E-1
1.96090E-1,-4.56817E-1
1.92413E-1,-4.57717E-1
1.88644E-1,-4.58663E-1
1.84967E-1,-4.59350E-1
1.81411E-1,-4.59960E-1
1.78070E-1,-4.60952E-1
1.74194E-1,-4.61639E-1
1.71066E-1,-4.61715E-1
1.67419E-1,-4.62005E-1
1.63787E-1,-4.62890E-1
1.59988E-1,-4.63043E-1
1.56570E-1,-4.63134E-1
1.52862E-1,-4.63028E-1
1.49383E-1,-4.62814E-1
1.45233E-1,-4.62585E-1
1.41937E-1,-4.62722E-1
1.37863E-1,-4.62493E-1
1.33941E-1,-4.61975E-1
1.30310E-1,-4.61517E-1
1.26419E-1,-4.61074E-1
1.22528E-1,-4.60586E-1
1.18301E-1,-4.59701E-1
1.14517E-1,-4.58892E-1
1.10519E-1,-4.58587E-1
1.06414E-1,-4.57366E-1
1.02111E-1,-4.56527E-1
0.98175E-1,-4.55474E-1
0.94009E-1,-4.54559E-1
0.89706E-1,-4.53613E-1
0.85464E-1,-4.52179E-1
0.81329E-1,-4.51080E-1
0.77041E-1,-4.49676E-1
0.72876E-1,-4.48608E-1
0.68466E-1,-4.46960E-1
0.63995E-1,-4.45983E-1
0.59738E-1,-4.44427E-1
0.55252E-1,-4.42764E-1
0.50872E-1,-4.4133E-1
0.46295E-1,-4.39392E-1
0.42175E-1,-4.38110E-1
0.37536E-1,-4.36767E-1
0.32836E-1,-4.34906E-1
0.28533E-1,-4.32922E-1
0.24078E-1,-4.31549E-1
0.19790E-1,-4.29611E-1
0.15441E-1,-4.27764E-1
0.11383E-1,-4.26269E-1
0.06683E-1,-4.23965E-1
0.02517E-1,-4.21936E-1
-1.84631E-3,-4.19815E-1
-6.05773E-3,-4.17984E-1
-1.03149E-2,-4.15725E-1
-1.45111E-2,-4.13711E-1
-1.87530E-2,-4.11697E-1
-2.28271E-2,-4.09057E-1
-2.65045E-2,-4.07135E-1
-3.05023E-2,-4.04541E-1
-3.42712E-2,-4.02603E-1
-3.82385E-2,-4.00390E-1
-4.16412E-2,-3.98101E-1
-4.56237E-2,-3.95874E-1
-4.96978E-2,-3.93325E-1
-5.28106E-2,-3.91098E-1
-5.65795E-2,-3.88565E-1
-5.98754E-2,-3.86108E-1
-6.33239E-2,-3.83850E-1
-6.69708E-2,-3.81256E-1
-7.04650E-2,-3.78021E-1
-7.35473E-2,-3.75366E-1
-7.69043E-2,-3.72680E-1
-8.03833E-2,-3.69842E-1
-8.33129E-2,-3.66668E-1
-8.65173E-2,-3.63494E-1
-8.95690E-2,-3.60534E-1
-9.23156E-2,-3.57513E-1
-9.58099E-2,-3.54278E-1
-9.85717E-2,-3.50845E-1
-1.01699E-1,-3.47595E-1
-1.04156E-1,-3.44360E-1
-1.07025E-1,-3.41110E-1
-1.09314E-1,-3.37753E-1
-1.12365E-1,-3.34198E-1
-1.15005E-1,-3.30703E-1
-1.17172E-1,-3.27346E-1
-1.19766E-1,-3.23761E-1
-1.22009E-1,-3.20495E-1
-1.24435E-1,-3.16604E-1
-1.26403E-1,-3.13064E-1
-1.29180E-1,-3.09371E-1
-1.31378E-1,-3.05587E-1
-1.33071E-1,-3.02002E-1
-1.35818E-1,-2.97958E-1
-1.37847E-1,-2.94296E-1
-1.39801E-1,-2.90420E-1
-1.41754E-1,-2.86270E-1
-1.44012E-1,-2.82592E-1
-1.45629E-1,-2.78625E-1
-1.47735E-1,-2.74581E-1
-1.49459E-1,-2.70568E-1
-1.51062E-1,-2.66479E-1
-1.53228E-1,-2.62466E-1
-1.54632E-1,-2.58544E-1
-1.56311E-1,-2.54547E-1
-1.57928E-1,-2.50396E-1
-1.59225E-1,-2.46353E-1
-1.60530E-1,-2.42065E-1
-1.61834E-1,-2.37861E-1
-1.63261E-1,-2.33848E-1
-1.64550E-1,-2.29652E-1
-1.65313E-1,-2.25456E-1
-1.66534E-1,-2.21527E-1
-1.67480E-1,-2.17208E-1
-1.68396E-1,-2.13028E-1
-1.69067E-1,-2.09014E-1
-1.69754E-1,-2.04605E-1
-1.70303E-1,-2.00347E-1
-1.70669E-1,-1.96350E-1
-1.71493E-1,-1.92153E-1
-1.71646E-1,-1.87912E-1
-1.72088E-1,-1.83914E-1
-1.71951E-1,-1.79702E-1
-1.72134E-1,-1.75537E-1
-1.72348E-1,-1.70959E-1
-1.72042E-1,-1.66793E-1
-1.71783E-1,-1.62597E-1
-1.71585E-1,-1.58203E-1
-1.71234E-1,-1.53854E-1
-1.70852E-1,-1.49276E-1
-1.70257E-1,-1.45126E-1
-1.69570E-1,-1.40518E-1
-1.68670E-1,-1.36093E-1
-1.68136E-1,-1.31713E-1
-1.6716E-1,-1.27410E-1
-1.66412E-1,-1.2323E-1
-1.65039E-1,-1.18835E-1
-1.64016E-1,-1.14517E-1
-1.62780E-1,-1.09848E-1
-1.61941E-1,-1.05743E-1
-1.60507E-1,-1.01242E-1
-1.59423E-1,-9.67941E-2
-1.57844E-1,-9.23919E-2
-1.56379E-1,-8.80127E-2
-1.54869E-1,-8.35800E-2
-1.53511E-1,-7.89794E-2
-1.51832E-1,-7.49511E-2
-1.49986E-1,-7.01370E-2
-1.48269E-1,-6.54068E-2
-1.46492E-1,-6.10275E-2
-1.44393E-1,-5.67550E-2
-1.42669E-1,-5.17654E-2
-1.40869E-1,-4.75463E-2
-1.38458E-1,-4.33502E-2
-1.36291E-1,-3.862E-2
-1.34521E-1,-3.43780E-2
-1.32110E-1,-2.99072E-2
-1.29913E-1,-2.57263E-2
-1.27960E-1,-2.12326E-2
-1.25541E-1,-1.71737E-2
-1.23382E-1,-1.32064E-2
-1.21093E-1,-8.75091E-3
-1.18904E-1,-4.50134E-3
-1.16561E-1,-6.40869E-4
-1.13945E-1,0.34484E-2
-1.11496E-1,0.73318E-2
-1.09146E-1,1.13601E-2
-1.06483E-1,1.53427E-2
-1.03736E-1,1.87912E-2
-1.01329E-1,2.24685E-2
-9.84611E-2,2.62641E-2
-9.58175E-2,3.00674E-2
-9.32006E-2,3.34167E-2
-9.04083E-2,3.69110E-2
-8.79898E-2,4.04586E-2
-8.44650E-2,4.34417E-2
-8.18328E-2,4.66461E-2
-7.90939E-2,4.96368E-2
-7.60040E-2,5.25512E-2
-7.28836E-2,5.56411E-2
-6.98928E-2,5.83725E-2
-6.67800E-2,6.09893E-2
-6.36901E-2,6.39953E-2
-6.05697E-2,6.64215E-2
-5.70983E-2,6.89926E-2
-5.40275E-2,7.14530E-2
-5.06248E-2,7.38868E-2
-4.74815E-2,7.61299E-2
-4.39376E-2,7.82966E-2
-4.06417E-2,8.00209E-2
-3.70903E-2,8.23211E-2
-3.34358E-2,8.42094E-2
-3.02581E-2,8.64028E-2
-2.64053E-2,8.80012E-2
-2.25601E-2,8.98208E-2
-1.94702E-2,9.15298E-2
-1.55944E-2,9.33837E-2
-1.20773E-2,9.48867E-2
-8.52966E-3,9.63058E-2
-4.70733E-3,9.79309E-2
-1.03759E-3,9.93194E-2
0.25787E-2,1.00448E-1
0.60806E-2,1.01852E-1
1.00860E-2,1.03218E-1
1.39541E-2,1.04187E-1
1.73950E-2,1.05438E-1
2.10800E-2,1.06498E-1
2.47421E-2,1.07635E-1
2.83355E-2,1.08840E-1
3.17535E-2,1.09893E-1
3.55606E-2,1.10900E-1
3.91387E-2,1.11663E-1
4.26254E-2,1.13037E-1
4.62455E-2,1.13735E-1
4.99038E-2,1.14532E-1
5.31692E-2,1.15913E-1
5.64956E-2,1.16508E-1
5.99594E-2,1.17340E-1
6.34689E-2,1.18530E-1
6.70852E-2,1.19056E-1
7.06481E-2,1.19590E-1
7.39212E-2,1.20338E-1
7.73468E-2,1.20948E-1
8.06274E-2,1.21734E-1
8.43353E-2,1.22222E-1
8.7677E-2,1.22680E-1
9.11865E-2,1.23275E-1
9.47570E-2,1.23809E-1
9.80224E-2,1.24206E-1
1.01455E-1,1.24572E-1
1.05072E-1,1.24862E-1
1.08383E-1,1.24481E-1
1.11846E-1,1.24908E-1
1.15257E-1,1.24763E-1
1.18690E-1,1.24626E-1
1.22039E-1,1.24717E-1
1.25656E-1,1.24328E-1
1.29013E-1,1.24267E-1
1.32476E-1,1.23649E-1
1.362E-1,1.22963E-1
1.39724E-1,1.22230E-1
1.43219E-1,1.21757E-1
1.46781E-1,1.20826E-1
1.50032E-1,1.20018E-1
1.54068E-1,1.18866E-1
1.57356E-1,1.17828E-1
1.60980E-1,1.17050E-1
1.64245E-1,1.15661E-1
1.67953E-1,1.14318E-1
1.71180E-1,1.13098E-1
1.74751E-1,1.11656E-1
1.78405E-1,1.10076E-1
1.82052E-1,1.08322E-1
1.85440E-1,1.06521E-1
1.88995E-1,1.04934E-1
1.92520E-1,1.02996E-1
1.95907E-1,1.00738E-1
1.99798E-1,0.98617E-1
2.02972E-1,0.96801E-1
2.06771E-1,0.94680E-1
2.09869E-1,0.92575E-1
2.13699E-1,0.90271E-1
2.17178E-1,0.88104E-1
2.20474E-1,0.85861E-1
2.23953E-1,0.83221E-1
2.27233E-1,0.81039E-1
2.30560E-1,0.78674E-1
2.34115E-1,0.76217E-1
2.37457E-1,0.73539E-1
2.40814E-1,0.70999E-1
2.43789E-1,0.68573E-1
2.46994E-1,0.66131E-1
2.50183E-1,0.63461E-1
2.53402E-1,0.60913E-1
2.56698E-1,0.58136E-1
2.59735E-1,0.55877E-1
2.62771E-1,0.53024E-1
2.65731E-1,0.50506E-1
2.68737E-1,0.47470E-1
2.71804E-1,0.44830E-1
2.74475E-1,0.42221E-1
2.77145E-1,0.39749E-1
2.80090E-1,0.36972E-1
2.82989E-1,0.34088E-1
2.85461E-1,0.31372E-1
2.88269E-1,0.28686E-1
2.90893E-1,0.25970E-1
2.93441E-1,0.23101E-1
2.95745E-1,0.20111E-1
2.98065E-1,0.17379E-1
3.00460E-1,0.14465E-1
3.02551E-1,0.11611E-1
3.04855E-1,0.08514E-1
3.06991E-1,0.05722E-1
3.09036E-1,0.02914E-1
3.11050E-1,0E0
3.12881E-1,-2.67028E-3
3.14834E-1,-5.67627E-3
3.16757E-1,-8.54492E-3
3.18374E-1,-1.19171E-2
3.20388E-1,-1.47552E-2
3.22052E-1,-1.76239E-2
3.23318E-1,-2.05688E-2
3.24707E-1,-2.37884E-2
3.26293E-1,-2.65960E-2
3.27667E-1,-2.94036E-2
3.28903E-1,-3.23486E-2
3.30383E-1,-3.54919E-2
3.31695E-1,-3.86352E-2
3.32702E-1,-4.17480E-2
3.33709E-1,-4.44641E-2
3.34930E-1,-4.76989E-2
3.36090E-1,-5.07507E-2
3.37158E-1,-5.40618E-2
3.38043E-1,-5.69458E-2
3.38928E-1,-6.03332E-2
3.39416E-1,-6.32629E-2
3.40393E-1,-6.63452E-2
3.40942E-1,-6.96716E-2
3.41766E-1,-7.28759E-2
3.42163E-1,-7.61718E-2
3.42971E-1,-7.94677E-2
3.43505E-1,-8.27484E-2
3.43673E-1,-8.56628E-2
3.44207E-1,-8.89587E-2
3.44329E-1,-9.17205E-2
3.44818E-1,-9.51080E-2
3.44924E-1,-9.79766E-2
3.44924E-1,-1.01104E-1
3.45031E-1,-1.04293E-1
3.44528E-1,-1.07269E-1
3.45016E-1,-1.10199E-1
3.44711E-1,-1.13403E-1
3.44619E-1,-1.16745E-1
3.44467E-1,-1.19674E-1
3.44177E-1,-1.22558E-1
3.43719E-1,-1.25976E-1
3.43261E-1,-1.29119E-1
3.42590E-1,-1.32354E-1
3.42224E-1,-1.35345E-1
3.41644E-1,-1.38610E-1
3.41064E-1,-1.41571E-1
3.40362E-1,-1.44653E-1
3.39691E-1,-1.47644E-1
3.38684E-1,-1.51001E-1
3.37936E-1,-1.54342E-1
3.37005E-1,-1.57379E-1
3.36029E-1,-1.60766E-1
3.35205E-1,-1.63818E-1
3.34426E-1,-1.66992E-1
3.33084E-1,-1.70471E-1
3.31893E-1,-1.73538E-1
3.30810E-1,-1.76452E-1
3.29544E-1,-1.79809E-1
3.28109E-1,-1.83334E-1
3.26919E-1,-1.86294E-1
3.25668E-1,-1.89666E-1
3.24157E-1,-1.93069E-1
3.22860E-1,-1.96533E-1
3.21838E-1,-1.99646E-1
3.20007E-1,-2.03140E-1
3.18771E-1,-2.06024E-1
3.17092E-1,-2.09564E-1
3.15795E-1,-2.12738E-1
3.14086E-1,-2.15789E-1
3.12835E-1,-2.18963E-1
3.11676E-1,-2.22320E-1
3.10150E-1,-2.25311E-1
3.08837E-1,-2.28485E-1
3.07189E-1,-2.31903E-1
3.05847E-1,-2.35015E-1
3.04382E-1,-2.37976E-1
3.03100E-1,-2.41363E-1
3.01544E-1,-2.44659E-1
3.00079E-1,-2.47497E-1
2.98614E-1,-2.50640E-1
2.97363E-1,-2.53692E-1
2.96203E-1,-2.56835E-1
2.94723E-1,-2.59811E-1
2.93640E-1,-2.62939E-1
2.9245E-1,-2.65838E-1
2.90741E-1,-2.68768E-1
2.89474E-1,-2.71270E-1
2.87963E-1,-2.73849E-1
2.86483E-1,-2.76382E-1
2.85308E-1,-2.79144E-1
2.84072E-1,-2.81570E-1
2.82959E-1,-2.84164E-1
2.81311E-1,-2.86453E-1
2.79830E-1,-2.88681E-1
2.78808E-1,-2.90893E-1
2.77191E-1,-2.93212E-1
2.76123E-1,-2.95318E-1
2.74749E-1,-2.97393E-1
2.73254E-1,-2.99224E-1
2.72064E-1,-3.01147E-1
2.70385E-1,-3.03009E-1
2.68707E-1,-3.04718E-1
2.67364E-1,-3.06243E-1
2.65686E-1,-3.07983E-1
2.64129E-1,-3.09509E-1
2.62664E-1,-3.11187E-1
2.60803E-1,-3.12133E-1
2.59002E-1,-3.13354E-1
2.57141E-1,-3.14758E-1
2.55218E-1,-3.15795E-1
2.53418E-1,-3.17321E-1
2.51403E-1,-3.18389E-1
2.49389E-1,-3.19335E-1
2.47421E-1,-3.20282E-1
2.45208E-1,-3.20861E-1
2.42736E-1,-3.21746E-1
2.40509E-1,-3.22921E-1
2.37808E-1,-3.24020E-1
2.35214E-1,-3.24752E-1
2.32513E-1,-3.25683E-1
2.29965E-1,-3.26095E-1
2.27294E-1,-3.27301E-1
2.24197E-1,-3.27728E-1
2.21237E-1,-3.28506E-1
2.18490E-1,-3.29269E-1
2.16064E-1,-3.30139E-1
2.12677E-1,-3.30902E-1
2.09503E-1,-3.31909E-1
2.06512E-1,-3.32733E-1
