CITIFILE A.01.00
#NA VERSION HP8753D.06.12
NAME DATA
VAR FREQ MAG 1601
DATA S[1,1] RI
SEG_LIST_BEGIN
SEG 100000000 200000000 1601
SEG_LIST_END
BEGIN
9.91149E-1,-1.78466E-1
9.90905E-1,-1.78161E-1
9.90173E-1,-1.77856E-1
9.89929E-1,-1.76818E-1
9.89440E-1,-1.76879E-1
9.88983E-1,-1.76513E-1
9.88525E-1,-1.76055E-1
9.88037E-1,-1.75750E-1
9.87182E-1,-1.76025E-1
9.86724E-1,-1.75811E-1
9.86022E-1,-1.75659E-1
9.85290E-1,-1.76055E-1
9.84649E-1,-1.75323E-1
9.84436E-1,-1.75750E-1
9.83673E-1,-1.75872E-1
9.83276E-1,-1.76269E-1
9.82116E-1,-1.76818E-1
9.81628E-1,-1.77002E-1
9.80926E-1,-1.77551E-1
9.80560E-1,-1.78070E-1
9.80011E-1,-1.78375E-1
9.79644E-1,-1.78833E-1
9.78851E-1,-1.79199E-1
9.78332E-1,-1.79809E-1
9.77600E-1,-1.80755E-1
9.76989E-1,-1.81304E-1
9.76470E-1,-1.81701E-1
9.76043E-1,-1.82586E-1
9.75891E-1,-1.83288E-1
9.75402E-1,-1.84082E-1
9.75158E-1,-1.84875E-1
9.74548E-1,-1.85363E-1
9.74121E-1,-1.86218E-1
9.73877E-1,-1.86950E-1
9.73999E-1,-1.87683E-1
9.73510E-1,-1.88537E-1
9.73449E-1,-1.89331E-1
9.73449E-1,-1.89941E-1
9.72900E-1,-1.91162E-1
9.72961E-1,-1.91894E-1
9.72656E-1,-1.92749E-1
9.72534E-1,-1.93908E-1
9.72534E-1,-1.94274E-1
9.72778E-1,-1.95068E-1
9.73022E-1,-1.95495E-1
9.73083E-1,-1.96594E-1
9.73083E-1,-1.97265E-1
9.73327E-1,-1.98059E-1
9.73327E-1,-1.98486E-1
9.73571E-1,-1.98944E-1
9.73632E-1,-1.99218E-1
9.73938E-1,-1.99829E-1
9.74609E-1,-2.00073E-1
9.74548E-1,-2.00805E-1
9.74853E-1,-2.00927E-1
9.75585E-1,-2.01538E-1
9.75647E-1,-2.01293E-1
9.76318E-1,-2.01538E-1
9.76684E-1,-2.01843E-1
9.76745E-1,-2.01843E-1
9.77600E-1,-2.02209E-1
9.78149E-1,-2.02575E-1
9.78332E-1,-2.02819E-1
9.78759E-1,-2.02087E-1
9.79126E-1,-2.02819E-1
9.79858E-1,-2.02331E-1
9.80590E-1,-2.02514E-1
9.80346E-1,-2.02026E-1
9.81018E-1,-2.02270E-1
9.81384E-1,-2.02087E-1
9.81933E-1,-2.01416E-1
9.82482E-1,-2.01416E-1
9.83093E-1,-2.01477E-1
9.83154E-1,-2.00927E-1
9.83642E-1,-2.00988E-1
9.84252E-1,-2.00744E-1
9.84436E-1,-2.00622E-1
9.84863E-1,-2.00012E-1
9.84985E-1,-1.99401E-1
9.85595E-1,-1.99218E-1
9.85595E-1,-1.98486E-1
9.85778E-1,-1.98303E-1
9.86084E-1,-1.97753E-1
9.85778E-1,-1.97692E-1
9.86511E-1,-1.97143E-1
9.86511E-1,-1.96777E-1
9.86389E-1,-1.96655E-1
9.86450E-1,-1.96106E-1
9.86328E-1,-1.95556E-1
9.86206E-1,-1.95129E-1
9.85961E-1,-1.95129E-1
9.85961E-1,-1.94458E-1
9.85839E-1,-1.94213E-1
9.85534E-1,-1.93664E-1
9.85351E-1,-1.93481E-1
9.84588E-1,-1.93145E-1
9.84680E-1,-1.93115E-1
9.84314E-1,-1.92688E-1
9.83703E-1,-1.92077E-1
9.83398E-1,-1.92321E-1
9.82971E-1,-1.92382E-1
9.81994E-1,-1.91894E-1
9.81933E-1,-1.92138E-1
9.81323E-1,-1.92138E-1
9.80346E-1,-1.91955E-1
9.80163E-1,-1.92138E-1
9.79003E-1,-1.92077E-1
9.78942E-1,-1.92138E-1
9.78210E-1,-1.92565E-1
9.78027E-1,-1.92993E-1
9.76867E-1,-1.93054E-1
9.76013E-1,-1.93359E-1
9.75524E-1,-1.93847E-1
9.74731E-1,-1.94610E-1
9.74243E-1,-1.94702E-1
9.73510E-1,-1.95068E-1
9.73388E-1,-1.95373E-1
9.72229E-1,-1.95983E-1
9.72351E-1,-1.96533E-1
9.71496E-1,-1.97143E-1
9.71252E-1,-1.97387E-1
9.70581E-1,-1.98242E-1
9.70581E-1,-1.98852E-1
9.70092E-1,-1.99646E-1
9.69848E-1,-2.00439E-1
9.69665E-1,-2.01110E-1
9.69238E-1,-2.01965E-1
9.69726E-1,-2.03094E-1
9.69421E-1,-2.03308E-1
9.69482E-1,-2.04406E-1
9.69604E-1,-2.04895E-1
9.69238E-1,-2.05932E-1
9.69726E-1,-2.06481E-1
9.70275E-1,-2.07641E-1
9.70397E-1,-2.08374E-1
9.70214E-1,-2.08801E-1
9.70581E-1,-2.09411E-1
9.71374E-1,-2.10327E-1
9.71740E-1,-2.10754E-1
9.7229E-1,-2.11547E-1
9.72595E-1,-2.12158E-1
9.73388E-1,-2.12402E-1
9.73815E-1,-2.12829E-1
9.74609E-1,-2.13439E-1
9.75280E-1,-2.13928E-1
9.75952E-1,-2.13928E-1
9.76440E-1,-2.14355E-1
9.77417E-1,-2.14355E-1
9.78393E-1,-2.14477E-1
9.79370E-1,-2.14660E-1
9.80102E-1,-2.14721E-1
9.80651E-1,-2.14416E-1
9.81872E-1,-2.14233E-1
9.82605E-1,-2.13867E-1
9.82971E-1,-2.13928E-1
9.83825E-1,-2.13256E-1
9.84375E-1,-2.12829E-1
9.85229E-1,-2.12402E-1
9.85961E-1,-2.12036E-1
9.86572E-1,-2.10815E-1
9.87243E-1,-2.09960E-1
9.87915E-1,-2.10022E-1
9.88342E-1,-2.08740E-1
9.88891E-1,-2.08435E-1
9.88647E-1,-2.07580E-1
9.89440E-1,-2.06848E-1
9.89379E-1,-2.06359E-1
9.89746E-1,-2.04956E-1
9.89807E-1,-2.04040E-1
9.89746E-1,-2.03491E-1
9.89318E-1,-2.02270E-1
9.89502E-1,-2.01416E-1
9.89379E-1,-2.00561E-1
9.89013E-1,-1.99462E-1
9.88952E-1,-1.98913E-1
9.88708E-1,-1.97814E-1
9.87915E-1,-1.97143E-1
9.87365E-1,-1.96899E-1
9.87060E-1,-1.95556E-1
9.86511E-1,-1.95373E-1
9.86022E-1,-1.94458E-1
9.84985E-1,-1.94274E-1
9.84375E-1,-1.93359E-1
9.83642E-1,-1.93054E-1
9.82666E-1,-1.93054E-1
9.81567E-1,-1.92504E-1
9.81079E-1,-1.92077E-1
9.79797E-1,-1.92077E-1
9.79370E-1,-1.91955E-1
9.78271E-1,-1.91894E-1
9.77356E-1,-1.91894E-1
9.76532E-1,-1.91803E-1
9.75647E-1,-1.92443E-1
9.74975E-1,-1.92749E-1
9.73815E-1,-1.93298E-1
9.72900E-1,-1.93786E-1
9.72168E-1,-1.93786E-1
9.71069E-1,-1.94152E-1
9.70581E-1,-1.95373E-1
9.69665E-1,-1.95922E-1
9.68933E-1,-1.96533E-1
9.68078E-1,-1.97082E-1
9.67895E-1,-1.98120E-1
9.66796E-1,-1.99523E-1
9.66369E-1,-2.00134E-1
9.65942E-1,-2.01049E-1
9.65087E-1,-2.01904E-1
9.64660E-1,-2.02880E-1
9.64477E-1,-2.04223E-1
9.63958E-1,-2.05047E-1
9.63562E-1,-2.06054E-1
9.63439E-1,-2.07336E-1
9.63134E-1,-2.08496E-1
9.63134E-1,-2.09472E-1
9.62890E-1,-2.10449E-1
9.62829E-1,-2.11059E-1
9.62707E-1,-2.12280E-1
9.62890E-1,-2.13073E-1
9.62829E-1,-2.14172E-1
9.62829E-1,-2.15271E-1
9.63439E-1,-2.16186E-1
9.63378E-1,-2.17102E-1
9.63256E-1,-2.17651E-1
9.63806E-1,-2.18444E-1
9.64172E-1,-2.19116E-1
9.64538E-1,-2.20214E-1
9.64538E-1,-2.20336E-1
9.6521E-1,-2.21069E-1
9.65637E-1,-2.21740E-1
9.66125E-1,-2.2229E-1
9.66735E-1,-2.22778E-1
9.66918E-1,-2.23388E-1
9.67651E-1,-2.23449E-1
9.67590E-1,-2.23999E-1
9.68689E-1,-2.24304E-1
9.68383E-1,-2.24304E-1
9.69055E-1,-2.24426E-1
9.69360E-1,-2.24304E-1
9.70214E-1,-2.24609E-1
9.70336E-1,-2.24426E-1
9.71374E-1,-2.24670E-1
9.71252E-1,-2.24456E-1
9.71191E-1,-2.24365E-1
9.71923E-1,-2.23877E-1
9.71923E-1,-2.24060E-1
9.72473E-1,-2.23449E-1
9.72778E-1,-2.23449E-1
9.73388E-1,-2.22900E-1
9.73327E-1,-2.22656E-1
9.73693E-1,-2.22106E-1
9.73877E-1,-2.22229E-1
9.73877E-1,-2.21618E-1
9.74121E-1,-2.21374E-1
9.74365E-1,-2.21313E-1
9.74670E-1,-2.20703E-1
9.74487E-1,-2.20581E-1
9.74609E-1,-2.20031E-1
9.73938E-1,-2.20031E-1
9.73632E-1,-2.19543E-1
9.73938E-1,-2.19726E-1
9.74304E-1,-2.19238E-1
9.73388E-1,-2.19116E-1
9.73205E-1,-2.18811E-1
9.73449E-1,-2.19055E-1
9.73510E-1,-2.18994E-1
9.73022E-1,-2.19055E-1
9.72839E-1,-2.18627E-1
9.72778E-1,-2.18444E-1
9.72534E-1,-2.18627E-1
9.72045E-1,-2.18994E-1
9.71923E-1,-2.18994E-1
9.71557E-1,-2.19177E-1
9.71313E-1,-2.19299E-1
9.71130E-1,-2.19360E-1
9.70764E-1,-2.19909E-1
9.70275E-1,-2.19848E-1
9.70092E-1,-2.20275E-1
9.69970E-1,-2.20397E-1
9.69604E-1,-2.20886E-1
9.68872E-1,-2.20764E-1
9.68689E-1,-2.21252E-1
9.68383E-1,-2.21496E-1
9.67895E-1,-2.21984E-1
9.68078E-1,-2.22473E-1
9.67468E-1,-2.22900E-1
9.67041E-1,-2.23327E-1
9.66888E-1,-2.23846E-1
9.66491E-1,-2.23938E-1
9.66125E-1,-2.24426E-1
9.66064E-1,-2.25097E-1
9.65515E-1,-2.25708E-1
9.65148E-1,-2.26379E-1
9.65087E-1,-2.26318E-1
9.64355E-1,-2.27417E-1
9.63989E-1,-2.27600E-1
9.64111E-1,-2.28027E-1
9.63928E-1,-2.28698E-1
9.63684E-1,-2.29431E-1
9.63562E-1,-2.30346E-1
9.63195E-1,-2.30407E-1
9.62829E-1,-2.31262E-1
9.63073E-1,-2.31384E-1
9.62768E-1,-2.32177E-1
9.62829E-1,-2.32055E-1
9.62585E-1,-2.33215E-1
9.62432E-1,-2.33825E-1
9.62280E-1,-2.33886E-1
9.62280E-1,-2.34619E-1
9.62219E-1,-2.34985E-1
9.62646E-1,-2.35656E-1
9.62158E-1,-2.36084E-1
9.62707E-1,-2.36877E-1
9.62829E-1,-2.37365E-1
9.62890E-1,-2.37487E-1
9.63195E-1,-2.37976E-1
9.63562E-1,-2.38464E-1
9.63806E-1,-2.38952E-1
9.63989E-1,-2.39440E-1
9.64508E-1,-2.39685E-1
9.64721E-1,-2.40051E-1
9.65026E-1,-2.40417E-1
9.65576E-1,-2.40844E-1
9.66308E-1,-2.41455E-1
9.66796E-1,-2.41882E-1
9.67285E-1,-2.42065E-1
9.67468E-1,-2.42492E-1
9.68200E-1,-2.42492E-1
9.68627E-1,-2.42858E-1
9.68872E-1,-2.42736E-1
9.69604E-1,-2.43469E-1
9.70153E-1,-2.43713E-1
9.70764E-1,-2.43469E-1
9.71435E-1,-2.43957E-1
9.72045E-1,-2.43652E-1
9.72717E-1,-2.43957E-1
9.73571E-1,-2.43835E-1
9.73754E-1,-2.43469E-1
9.74914E-1,-2.43591E-1
9.74670E-1,-2.43652E-1
9.75952E-1,-2.43225E-1
9.76379E-1,-2.43042E-1
9.77111E-1,-2.43164E-1
9.77172E-1,-2.42553E-1
9.78271E-1,-2.42004E-1
9.78454E-1,-2.42187E-1
9.79064E-1,-2.41638E-1
9.79309E-1,-2.41210E-1
9.79736E-1,-2.40966E-1
9.80468E-1,-2.40112E-1
9.80468E-1,-2.39868E-1
9.80804E-1,-2.39257E-1
9.81018E-1,-2.39074E-1
9.81323E-1,-2.38647E-1
9.81384E-1,-2.38037E-1
9.81384E-1,-2.37487E-1
9.81750E-1,-2.37182E-1
9.81445E-1,-2.36694E-1
9.81445E-1,-2.35900E-1
9.81689E-1,-2.35473E-1
9.81811E-1,-2.35046E-1
9.81323E-1,-2.34924E-1
9.81445E-1,-2.34191E-1
9.80957E-1,-2.33764E-1
9.80529E-1,-2.33520E-1
9.80957E-1,-2.32971E-1
9.80468E-1,-2.32605E-1
9.80285E-1,-2.32727E-1
9.80041E-1,-2.31933E-1
9.79492E-1,-2.31658E-1
9.78942E-1,-2.31567E-1
9.78698E-1,-2.31201E-1
9.78332E-1,-2.31018E-1
9.77844E-1,-2.30590E-1
9.77844E-1,-2.30529E-1
9.77356E-1,-2.30285E-1
9.77172E-1,-2.30346E-1
9.76440E-1,-2.30346E-1
9.76318E-1,-2.30651E-1
9.75891E-1,-2.30773E-1
9.75830E-1,-2.30590E-1
9.75219E-1,-2.30468E-1
9.74914E-1,-2.30896E-1
9.75006E-1,-2.31048E-1
9.74792E-1,-2.31079E-1
9.74731E-1,-2.31811E-1
9.74365E-1,-2.31872E-1
9.74365E-1,-2.32238E-1
9.74182E-1,-2.32421E-1
9.74182E-1,-2.32360E-1
9.74365E-1,-2.32971E-1
9.74243E-1,-2.33581E-1
9.74243E-1,-2.33703E-1
9.74243E-1,-2.34130E-1
9.74365E-1,-2.34375E-1
9.74487E-1,-2.35290E-1
9.74853E-1,-2.35656E-1
9.74731E-1,-2.35656E-1
9.75158E-1,-2.36389E-1
9.75402E-1,-2.36572E-1
9.76013E-1,-2.36755E-1
9.76165E-1,-2.36846E-1
9.76562E-1,-2.36877E-1
9.76867E-1,-2.37243E-1
9.77539E-1,-2.37304E-1
9.77966E-1,-2.37670E-1
9.78576E-1,-2.37426E-1
9.78942E-1,-2.37731E-1
9.79858E-1,-2.37731E-1
9.79858E-1,-2.37731E-1
9.80041E-1,-2.37854E-1
9.80712E-1,-2.37609E-1
9.81140E-1,-2.37182E-1
9.81750E-1,-2.36999E-1
9.81994E-1,-2.37060E-1
9.82605E-1,-2.36358E-1
9.82910E-1,-2.36084E-1
9.83215E-1,-2.35656E-1
9.83825E-1,-2.35778E-1
9.84130E-1,-2.35290E-1
9.84436E-1,-2.34802E-1
9.84314E-1,-2.33825E-1
9.84619E-1,-2.33886E-1
9.84985E-1,-2.33093E-1
9.85168E-1,-2.32849E-1
9.84985E-1,-2.32360E-1
9.85473E-1,-2.31689E-1
9.85168E-1,-2.30835E-1
9.85351E-1,-2.30346E-1
9.84863E-1,-2.30102E-1
9.84985E-1,-2.29675E-1
9.84741E-1,-2.28637E-1
9.84497E-1,-2.28271E-1
9.83978E-1,-2.27630E-1
9.83917E-1,-2.27142E-1
9.83398E-1,-2.26745E-1
9.83337E-1,-2.26379E-1
9.82849E-1,-2.25952E-1
9.82727E-1,-2.25341E-1
9.82055E-1,-2.24975E-1
9.81689E-1,-2.24731E-1
9.81140E-1,-2.24609E-1
9.80285E-1,-2.24609E-1
9.80407E-1,-2.24182E-1
9.79736E-1,-2.24243E-1
9.79064E-1,-2.23999E-1
9.78637E-1,-2.23999E-1
9.78088E-1,-2.24029E-1
9.77905E-1,-2.23632E-1
9.77356E-1,-2.24548E-1
9.76928E-1,-2.24304E-1
9.76562E-1,-2.24426E-1
9.75830E-1,-2.24853E-1
9.75463E-1,-2.25097E-1
9.75402E-1,-2.25463E-1
9.75036E-1,-2.25647E-1
9.74670E-1,-2.25891E-1
9.74121E-1,-2.26684E-1
9.74060E-1,-2.26867E-1
9.73510E-1,-2.26989E-1
9.73632E-1,-2.27539E-1
9.73205E-1,-2.28515E-1
9.72900E-1,-2.28637E-1
9.72534E-1,-2.28942E-1
9.72351E-1,-2.29553E-1
9.72564E-1,-2.30072E-1
9.72412E-1,-2.30224E-1
9.72595E-1,-2.30835E-1
9.72717E-1,-2.31506E-1
9.72656E-1,-2.31872E-1
9.72412E-1,-2.32116E-1
9.72595E-1,-2.32360E-1
9.72351E-1,-2.32849E-1
9.72900E-1,-2.32971E-1
9.73083E-1,-2.33398E-1
9.73083E-1,-2.33886E-1
9.73083E-1,-2.34008E-1
9.73266E-1,-2.34069E-1
9.73388E-1,-2.34161E-1
9.73236E-1,-2.34314E-1
9.73510E-1,-2.34191E-1
9.73388E-1,-2.34741E-1
9.73754E-1,-2.34680E-1
9.73877E-1,-2.34802E-1
9.73999E-1,-2.34924E-1
9.74121E-1,-2.34375E-1
9.73877E-1,-2.34863E-1
9.74365E-1,-2.34619E-1
9.74060E-1,-2.34436E-1
9.74121E-1,-2.34619E-1
9.74487E-1,-2.34558E-1
9.74121E-1,-2.34130E-1
9.74243E-1,-2.33886E-1
9.74487E-1,-2.33642E-1
9.73999E-1,-2.33337E-1
9.74060E-1,-2.33337E-1
9.73693E-1,-2.33032E-1
9.73541E-1,-2.33062E-1
9.73510E-1,-2.33093E-1
9.73327E-1,-2.32666E-1
9.73205E-1,-2.32360E-1
9.73083E-1,-2.32055E-1
9.72961E-1,-2.31750E-1
9.72656E-1,-2.31750E-1
9.72412E-1,-2.31689E-1
9.72351E-1,-2.31628E-1
9.71984E-1,-2.31689E-1
9.71862E-1,-2.31262E-1
9.71923E-1,-2.31506E-1
9.71374E-1,-2.31384E-1
9.71191E-1,-2.3172E-1
9.71008E-1,-2.31689E-1
9.70947E-1,-2.31689E-1
9.70397E-1,-2.31811E-1
9.70275E-1,-2.31811E-1
9.70031E-1,-2.32177E-1
9.69848E-1,-2.32666E-1
9.69360E-1,-2.32849E-1
9.69177E-1,-2.32971E-1
9.69360E-1,-2.33642E-1
9.68933E-1,-2.33703E-1
9.68811E-1,-2.34130E-1
9.68200E-1,-2.34741E-1
9.68627E-1,-2.34558E-1
9.68261E-1,-2.35168E-1
9.68505E-1,-2.35534E-1
9.68322E-1,-2.35412E-1
9.68444E-1,-2.36206E-1
9.68139E-1,-2.36633E-1
9.68048E-1,-2.37121E-1
9.68200E-1,-2.37121E-1
9.68689E-1,-2.37915E-1
9.68017E-1,-2.37793E-1
9.68505E-1,-2.38403E-1
9.68627E-1,-2.38403E-1
9.68566E-1,-2.38647E-1
9.68627E-1,-2.38769E-1
9.6875E-1,-2.39379E-1
9.68383E-1,-2.39135E-1
9.68811E-1,-2.39440E-1
9.68627E-1,-2.39990E-1
9.69299E-1,-2.39990E-1
9.6875E-1,-2.39715E-1
9.68994E-1,-2.40387E-1
9.68933E-1,-2.40112E-1
9.68933E-1,-2.40234E-1
9.69482E-1,-2.40112E-1
9.68994E-1,-2.40295E-1
9.69238E-1,-2.39990E-1
9.69360E-1,-2.39929E-1
9.69421E-1,-2.39868E-1
9.69238E-1,-2.40356E-1
9.68994E-1,-2.39868E-1
9.69543E-1,-2.39502E-1
9.68933E-1,-2.40112E-1
9.69116E-1,-2.39379E-1
9.69055E-1,-2.39135E-1
9.68505E-1,-2.39379E-1
9.68689E-1,-2.38891E-1
9.68322E-1,-2.38708E-1
9.67865E-1,-2.38647E-1
9.68200E-1,-2.38861E-1
9.67651E-1,-2.38098E-1
9.67712E-1,-2.38220E-1
9.67102E-1,-2.37854E-1
9.66918E-1,-2.38098E-1
9.66247E-1,-2.38098E-1
9.66186E-1,-2.37670E-1
9.66247E-1,-2.37915E-1
9.65698E-1,-2.38037E-1
9.65332E-1,-2.38159E-1
9.6521E-1,-2.38098E-1
9.64843E-1,-2.38342E-1
9.64782E-1,-2.38098E-1
9.64325E-1,-2.38220E-1
9.63745E-1,-2.38372E-1
9.64416E-1,-2.38830E-1
9.63806E-1,-2.38708E-1
9.63623E-1,-2.38830E-1
9.63256E-1,-2.39563E-1
9.63195E-1,-2.39929E-1
9.62463E-1,-2.39868E-1
9.62768E-1,-2.40417E-1
9.62341E-1,-2.41149E-1
9.62707E-1,-2.41577E-1
9.62341E-1,-2.41394E-1
9.62402E-1,-2.41943E-1
9.62097E-1,-2.42065E-1
9.62036E-1,-2.42492E-1
9.62036E-1,-2.43286E-1
9.61914E-1,-2.43591E-1
9.62402E-1,-2.43896E-1
9.62341E-1,-2.44079E-1
9.62280E-1,-2.44171E-1
9.62768E-1,-2.44873E-1
9.62707E-1,-2.45056E-1
9.62890E-1,-2.45300E-1
9.62951E-1,-2.45544E-1
9.63195E-1,-2.45910E-1
9.63378E-1,-2.46032E-1
9.63317E-1,-2.46032E-1
9.63562E-1,-2.46215E-1
9.63806E-1,-2.46154E-1
9.63806E-1,-2.46765E-1
9.63867E-1,-2.45971E-1
9.64233E-1,-2.46154E-1
9.64325E-1,-2.46429E-1
9.64355E-1,-2.46276E-1
9.64538E-1,-2.46154E-1
9.64538E-1,-2.45849E-1
9.64294E-1,-2.46398E-1
9.64660E-1,-2.46154E-1
9.64599E-1,-2.45666E-1
9.64599E-1,-2.45544E-1
9.64294E-1,-2.45605E-1
9.64233E-1,-2.45178E-1
9.63745E-1,-2.44873E-1
9.64050E-1,-2.44445E-1
9.63562E-1,-2.44628E-1
9.63317E-1,-2.44079E-1
9.62829E-1,-2.43896E-1
9.62646E-1,-2.43347E-1
9.62524E-1,-2.42919E-1
9.61914E-1,-2.43469E-1
9.61334E-1,-2.42553E-1
9.60998E-1,-2.42767E-1
9.60449E-1,-2.42187E-1
9.59716E-1,-2.42065E-1
9.59228E-1,-2.41577E-1
9.58435E-1,-2.41821E-1
9.58007E-1,-2.41760E-1
9.56909E-1,-2.41821E-1
9.56665E-1,-2.41699E-1
9.55810E-1,-2.41882E-1
9.54650E-1,-2.42065E-1
9.53918E-1,-2.42309E-1
9.53552E-1,-2.42492E-1
9.52575E-1,-2.43042E-1
9.51690E-1,-2.43103E-1
9.50927E-1,-2.43621E-1
9.50317E-1,-2.44201E-1
9.49279E-1,-2.44873E-1
9.48547E-1,-2.45483E-1
9.47937E-1,-2.45788E-1
9.46716E-1,-2.46704E-1
9.46289E-1,-2.47436E-1
9.45739E-1,-2.48352E-1
9.44580E-1,-2.48840E-1
9.44030E-1,-2.49939E-1
9.43542E-1,-2.50854E-1
9.42688E-1,-2.51586E-1
9.42138E-1,-2.52685E-1
9.41345E-1,-2.53418E-1
9.40979E-1,-2.54638E-1
9.40307E-1,-2.55615E-1
9.40368E-1,-2.56530E-1
9.39697E-1,-2.57782E-1
9.38995E-1,-2.59094E-1
9.38659E-1,-2.59887E-1
9.38232E-1,-2.60864E-1
9.37988E-1,-2.62085E-1
9.37866E-1,-2.63305E-1
9.37927E-1,-2.64587E-1
9.37622E-1,-2.65258E-1
9.37316E-1,-2.66357E-1
9.37011E-1,-2.67334E-1
9.36889E-1,-2.68432E-1
9.36706E-1,-2.69165E-1
9.36523E-1,-2.70324E-1
9.36706E-1,-2.71179E-1
9.36889E-1,-2.72155E-1
9.36584E-1,-2.73254E-1
9.36645E-1,-2.74292E-1
9.36401E-1,-2.75024E-1
9.36584E-1,-2.75573E-1
9.36950E-1,-2.76245E-1
9.37011E-1,-2.77160E-1
9.36584E-1,-2.77893E-1
9.36828E-1,-2.78747E-1
9.37011E-1,-2.79235E-1
9.37439E-1,-2.79846E-1
9.37439E-1,-2.80273E-1
9.37439E-1,-2.80944E-1
9.37744E-1,-2.81372E-1
9.37744E-1,-2.81921E-1
9.38110E-1,-2.82287E-1
9.38476E-1,-2.82592E-1
9.38781E-1,-2.83081E-1
9.38659E-1,-2.83355E-1
9.38842E-1,-2.83966E-1
9.39147E-1,-2.84179E-1
9.39636E-1,-2.84362E-1
9.39819E-1,-2.84912E-1
9.40002E-1,-2.85217E-1
9.40490E-1,-2.85522E-1
9.40124E-1,-2.86010E-1
9.40918E-1,-2.85827E-1
9.41101E-1,-2.86315E-1
9.41406E-1,-2.86377E-1
9.41284E-1,-2.86499E-1
9.41772E-1,-2.86621E-1
9.41833E-1,-2.87170E-1
9.42169E-1,-2.87231E-1
9.42688E-1,-2.87658E-1
9.42749E-1,-2.88085E-1
9.43176E-1,-2.88085E-1
9.43786E-1,-2.88635E-1
9.43847E-1,-2.88696E-1
9.43847E-1,-2.89367E-1
9.44335E-1,-2.89245E-1
9.44702E-1,-2.89672E-1
9.45129E-1,-2.89489E-1
9.45495E-1,-2.89672E-1
9.45800E-1,-2.90039E-1
9.46350E-1,-2.90222E-1
9.46716E-1,-2.90344E-1
9.47143E-1,-2.90344E-1
9.47082E-1,-2.90588E-1
9.47265E-1,-2.90649E-1
9.48059E-1,-2.90771E-1
9.48730E-1,-2.90863E-1
9.48852E-1,-2.91198E-1
9.48974E-1,-2.91259E-1
9.49401E-1,-2.91015E-1
9.49768E-1,-2.91381E-1
9.49829E-1,-2.91076E-1
9.50500E-1,-2.90954E-1
9.50622E-1,-2.90771E-1
9.51049E-1,-2.91198E-1
9.50805E-1,-2.91015E-1
9.51049E-1,-2.90710E-1
9.51416E-1,-2.90466E-1
9.51812E-1,-2.90771E-1
9.51629E-1,-2.90344E-1
9.51629E-1,-2.90527E-1
9.51599E-1,-2.90405E-1
9.51110E-1,-2.90100E-1
9.51355E-1,-2.89611E-1
9.51355E-1,-2.89733E-1
9.51232E-1,-2.89367E-1
9.51171E-1,-2.88818E-1
9.50744E-1,-2.89184E-1
9.50683E-1,-2.89062E-1
9.50500E-1,-2.88879E-1
9.49707E-1,-2.88696E-1
9.49951E-1,-2.89001E-1
9.49279E-1,-2.88330E-1
9.48852E-1,-2.88269E-1
9.48547E-1,-2.88635E-1
9.48120E-1,-2.88269E-1
9.47143E-1,-2.88452E-1
9.46991E-1,-2.88391E-1
9.46380E-1,-2.88574E-1
9.45770E-1,-2.89062E-1
9.45739E-1,-2.88940E-1
9.45190E-1,-2.88818E-1
9.44763E-1,-2.89367E-1
9.44397E-1,-2.89489E-1
9.43359E-1,-2.90161E-1
9.43054E-1,-2.89978E-1
9.42810E-1,-2.91076E-1
9.42321E-1,-2.91320E-1
9.41955E-1,-2.92236E-1
9.41406E-1,-2.92785E-1
9.41192E-1,-2.93579E-1
9.40673E-1,-2.93792E-1
9.40643E-1,-2.94952E-1
9.40185E-1,-2.95349E-1
9.39880E-1,-2.96386E-1
9.39819E-1,-2.97241E-1
9.39575E-1,-2.98278E-1
9.39758E-1,-2.99011E-1
9.39880E-1,-3.00109E-1
9.40185E-1,-3.00903E-1
9.40185E-1,-3.01635E-1
9.40185E-1,-3.02856E-1
9.40490E-1,-3.03772E-1
9.40734E-1,-3.04626E-1
9.41345E-1,-3.05358E-1
9.41467E-1,-3.06335E-1
9.42077E-1,-3.07189E-1
9.43237E-1,-3.07861E-1
9.43725E-1,-3.09021E-1
9.44702E-1,-3.09265E-1
9.45343E-1,-3.10211E-1
9.46716E-1,-3.10668E-1
9.47448E-1,-3.11523E-1
9.48303E-1,-3.11950E-1
9.49279E-1,-3.12377E-1
9.50256E-1,-3.12439E-1
9.51599E-1,-3.12744E-1
9.52819E-1,-3.13232E-1
9.53979E-1,-3.13110E-1
9.55322E-1,-3.12866E-1
9.56359E-1,-3.13476E-1
9.57763E-1,-3.13354E-1
9.59106E-1,-3.12744E-1
9.60388E-1,-3.12530E-1
9.61731E-1,-3.11828E-1
9.62768E-1,-3.11279E-1
9.64233E-1,-3.11157E-1
9.65148E-1,-3.10180E-1
9.66064E-1,-3.09265E-1
9.67407E-1,-3.08654E-1
9.68200E-1,-3.07556E-1
9.69299E-1,-3.06701E-1
9.70581E-1,-3.04931E-1
9.71496E-1,-3.04382E-1
9.71862E-1,-3.03039E-1
9.72595E-1,-3.02002E-1
9.73388E-1,-3.00781E-1
9.73815E-1,-2.99316E-1
9.74548E-1,-2.97729E-1
9.74975E-1,-2.96752E-1
9.74975E-1,-2.95349E-1
9.75494E-1,-2.94189E-1
9.75647E-1,-2.92511E-1
9.75616E-1,-2.91290E-1
9.75524E-1,-2.89917E-1
9.75830E-1,-2.88879E-1
9.75585E-1,-2.87841E-1
9.75097E-1,-2.86438E-1
9.74975E-1,-2.85400E-1
9.74609E-1,-2.84545E-1
9.73938E-1,-2.83447E-1
9.73510E-1,-2.8302E-1
9.72961E-1,-2.82165E-1
9.72045E-1,-2.81066E-1
9.71679E-1,-2.80944E-1
9.71008E-1,-2.80426E-1
9.70428E-1,-2.79754E-1
9.69055E-1,-2.79418E-1
9.68689E-1,-2.79296E-1
9.67651E-1,-2.79113E-1
9.6698E-1,-2.78869E-1
9.66369E-1,-2.78991E-1
9.65698E-1,-2.79357E-1
9.64538E-1,-2.79235E-1
9.63745E-1,-2.7948E-1
9.63501E-1,-2.79968E-1
9.62097E-1,-2.80395E-1
9.61792E-1,-2.80761E-1
9.60693E-1,-2.8125E-1
9.60327E-1,-2.82043E-1
9.59716E-1,-2.82531E-1
9.59289E-1,-2.83142E-1
9.58984E-1,-2.83752E-1
9.58740E-1,-2.84729E-1
9.58252E-1,-2.85369E-1
9.57885E-1,-2.86377E-1
9.57580E-1,-2.86987E-1
9.57519E-1,-2.88024E-1
9.57336E-1,-2.88757E-1
9.57153E-1,-2.89550E-1
9.57519E-1,-2.90710E-1
9.57336E-1,-2.91320E-1
9.57702E-1,-2.92114E-1
9.58129E-1,-2.92724E-1
9.57946E-1,-2.93518E-1
9.58313E-1,-2.94128E-1
9.58953E-1,-2.94616E-1
9.59411E-1,-2.95471E-1
9.59838E-1,-2.95929E-1
9.60388E-1,-2.96691E-1
