CITIFILE A.01.00
#NA VERSION HP8753D.06.12
NAME DATA
VAR FREQ MAG 1601
DATA S[1,1] RI
SEG_LIST_BEGIN
SEG 100000000 200000000 1601
SEG_LIST_END
BEGIN
9.82360E-1,-1.90551E-1
9.82360E-1,-1.90307E-1
9.82177E-1,-1.89941E-1
9.82238E-1,-1.90002E-1
9.82543E-1,-1.90490E-1
9.82360E-1,-1.90856E-1
9.82849E-1,-1.90429E-1
9.82055E-1,-1.90429E-1
9.82360E-1,-1.90856E-1
9.82788E-1,-1.90918E-1
9.82727E-1,-1.9104E-1
9.82116E-1,-1.90979E-1
9.82299E-1,-1.92260E-1
9.82727E-1,-1.91406E-1
9.82666E-1,-1.90795E-1
9.82360E-1,-1.91528E-1
9.82666E-1,-1.91772E-1
9.82482E-1,-1.91223E-1
9.82910E-1,-1.90734E-1
9.82299E-1,-1.91894E-1
9.82543E-1,-1.91528E-1
9.82605E-1,-1.92138E-1
9.82788E-1,-1.92688E-1
9.83154E-1,-1.92504E-1
9.82910E-1,-1.92077E-1
9.83337E-1,-1.92199E-1
9.82666E-1,-1.93237E-1
9.82666E-1,-1.92688E-1
9.82971E-1,-1.92321E-1
9.82482E-1,-1.92382E-1
9.82543E-1,-1.92871E-1
9.81994E-1,-1.93298E-1
9.82238E-1,-1.92688E-1
9.82055E-1,-1.92199E-1
9.82238E-1,-1.92321E-1
9.81781E-1,-1.93176E-1
9.82299E-1,-1.93634E-1
9.82330E-1,-1.93664E-1
9.82177E-1,-1.93389E-1
9.81689E-1,-1.93450E-1
9.82269E-1,-1.93298E-1
9.82269E-1,-1.92596E-1
9.82086E-1,-1.93878E-1
9.81964E-1,-1.93389E-1
9.82330E-1,-1.93481E-1
9.83123E-1,-1.94488E-1
9.81964E-1,-1.93634E-1
9.82452E-1,-1.93878E-1
9.82116E-1,-1.93573E-1
9.82757E-1,-1.94122E-1
9.81994E-1,-1.94458E-1
9.82269E-1,-1.94061E-1
9.82147E-1,-1.94458E-1
9.82116E-1,-1.94427E-1
9.82696E-1,-1.94519E-1
9.81689E-1,-1.94519E-1
9.81933E-1,-1.94763E-1
9.80896E-1,-1.94793E-1
9.82147E-1,-1.94488E-1
9.82360E-1,-1.94641E-1
9.81079E-1,-1.93969E-1
9.81170E-1,-1.95312E-1
9.82360E-1,-1.94519E-1
9.81964E-1,-1.95251E-1
9.82482E-1,-1.95373E-1
9.81506E-1,-1.95312E-1
9.81750E-1,-1.95068E-1
9.81384E-1,-1.94702E-1
9.82055E-1,-1.95312E-1
9.81994E-1,-1.94397E-1
9.81323E-1,-1.95251E-1
9.81872E-1,-1.95678E-1
9.81262E-1,-1.94885E-1
9.81628E-1,-1.96167E-1
9.81994E-1,-1.95007E-1
9.80835E-1,-1.94824E-1
9.81018E-1,-1.95983E-1
9.81445E-1,-1.95922E-1
9.80773E-1,-1.95922E-1
9.81811E-1,-1.96289E-1
9.80835E-1,-1.96350E-1
9.80712E-1,-1.95861E-1
9.81811E-1,-1.96228E-1
9.81262E-1,-1.95495E-1
9.80407E-1,-1.97143E-1
9.81018E-1,-1.96167E-1
9.80590E-1,-1.96350E-1
9.81079E-1,-1.96594E-1
9.81445E-1,-1.95861E-1
9.80896E-1,-1.97265E-1
9.81445E-1,-1.96655E-1
9.81445E-1,-1.96655E-1
9.80346E-1,-1.97021E-1
9.80957E-1,-1.96716E-1
9.80835E-1,-1.97143E-1
9.81201E-1,-1.96594E-1
9.81323E-1,-1.97265E-1
9.81323E-1,-1.96655E-1
9.80835E-1,-1.96838E-1
9.80529E-1,-1.96899E-1
9.80346E-1,-1.97692E-1
9.81079E-1,-1.97265E-1
9.80529E-1,-1.97448E-1
9.79797E-1,-1.97753E-1
9.80712E-1,-1.97143E-1
9.80590E-1,-1.98120E-1
9.79553E-1,-1.97326E-1
9.79614E-1,-1.97692E-1
9.80041E-1,-1.97509E-1
9.79797E-1,-1.97570E-1
9.80041E-1,-1.97448E-1
9.79675E-1,-1.98242E-1
9.79797E-1,-1.98425E-1
9.79492E-1,-1.98120E-1
9.79553E-1,-1.98730E-1
9.79614E-1,-1.98852E-1
9.79492E-1,-1.98608E-1
9.79797E-1,-1.99035E-1
9.80163E-1,-1.98913E-1
9.79431E-1,-1.98608E-1
9.79919E-1,-1.98425E-1
9.79248E-1,-1.98547E-1
9.79431E-1,-1.99035E-1
9.79431E-1,-1.98303E-1
9.79492E-1,-1.99768E-1
9.79431E-1,-1.99279E-1
9.79370E-1,-1.98120E-1
9.79309E-1,-1.99096E-1
9.79644E-1,-2.00042E-1
9.79553E-1,-1.99981E-1
9.79553E-1,-1.99462E-1
9.79095E-1,-1.99249E-1
9.78424E-1,-1.99615E-1
9.78576E-1,-1.99249E-1
9.78515E-1,-1.99951E-1
9.78454E-1,-2.00195E-1
9.79217E-1,-1.99981E-1
9.78576E-1,-1.99523E-1
9.79126E-1,-1.99981E-1
9.78332E-1,-1.99218E-1
9.78302E-1,-1.99981E-1
9.78454E-1,-1.99890E-1
9.78027E-1,-2.00317E-1
9.78424E-1,-1.99615E-1
9.77905E-1,-2.00622E-1
9.78485E-1,-2.00805E-1
9.77691E-1,-2.00744E-1
9.77783E-1,-2.0047E-1
9.78149E-1,-2.00744E-1
9.77874E-1,-2.01629E-1
9.78759E-1,-2.01324E-1
9.78027E-1,-2.01141E-1
9.77844E-1,-2.01110E-1
9.78271E-1,-2.01477E-1
9.77539E-1,-2.01477E-1
9.77356E-1,-2.01477E-1
9.77905E-1,-2.01660E-1
9.77294E-1,-2.00744E-1
9.77417E-1,-2.00927E-1
9.77356E-1,-2.01232E-1
9.77783E-1,-2.02514E-1
9.77294E-1,-2.01293E-1
9.77844E-1,-2.02026E-1
9.77050E-1,-2.01721E-1
9.77600E-1,-2.01660E-1
9.76928E-1,-2.02453E-1
9.76806E-1,-2.02880E-1
9.76928E-1,-2.02880E-1
9.77172E-1,-2.03186E-1
9.77539E-1,-2.03674E-1
9.76135E-1,-2.02758E-1
9.76196E-1,-2.04040E-1
9.75952E-1,-2.03491E-1
9.76379E-1,-2.03125E-1
9.76013E-1,-2.02758E-1
9.76318E-1,-2.03125E-1
9.76684E-1,-2.03918E-1
9.76562E-1,-2.03735E-1
9.76562E-1,-2.03186E-1
9.76623E-1,-2.03857E-1
9.77356E-1,-2.04101E-1
9.76074E-1,-2.03674E-1
9.76684E-1,-2.03857E-1
9.76623E-1,-2.03613E-1
9.75524E-1,-2.04467E-1
9.75585E-1,-2.04711E-1
9.75952E-1,-2.04467E-1
9.75891E-1,-2.04467E-1
9.75769E-1,-2.04467E-1
9.75708E-1,-2.05017E-1
9.75402E-1,-2.04834E-1
9.75402E-1,-2.05139E-1
9.75036E-1,-2.05566E-1
9.75219E-1,-2.04772E-1
9.75036E-1,-2.05200E-1
9.75036E-1,-2.05688E-1
9.74670E-1,-2.06054E-1
9.74578E-1,-2.05749E-1
9.74609E-1,-2.05566E-1
9.75219E-1,-2.05474E-1
9.74456E-1,-2.06909E-1
9.74975E-1,-2.05749E-1
9.74670E-1,-2.05902E-1
9.75708E-1,-2.06390E-1
9.75769E-1,-2.06451E-1
9.75494E-1,-2.06939E-1
9.75372E-1,-2.06878E-1
9.74945E-1,-2.06573E-1
9.75280E-1,-2.07672E-1
9.74853E-1,-2.07641E-1
9.74945E-1,-2.07397E-1
9.73968E-1,-2.06695E-1
9.74304E-1,-2.07305E-1
9.73815E-1,-2.06848E-1
9.73785E-1,-2.06604E-1
9.73541E-1,-2.07763E-1
9.73266E-1,-2.07733E-1
9.73663E-1,-2.07580E-1
9.73480E-1,-2.07733E-1
9.73663E-1,-2.08282E-1
9.73754E-1,-2.08923E-1
9.73907E-1,-2.08343E-1
9.72991E-1,-2.08374E-1
9.73327E-1,-2.08496E-1
9.73754E-1,-2.08740E-1
9.73877E-1,-2.08923E-1
9.73449E-1,-2.08923E-1
9.73693E-1,-2.09960E-1
9.73388E-1,-2.08923E-1
9.73327E-1,-2.09655E-1
9.73510E-1,-2.10266E-1
9.73510E-1,-2.09411E-1
9.73266E-1,-2.10205E-1
9.73205E-1,-2.09960E-1
9.73632E-1,-2.10754E-1
9.73449E-1,-2.10266E-1
9.72412E-1,-2.10754E-1
9.73327E-1,-2.10571E-1
9.72961E-1,-2.10266E-1
9.72473E-1,-2.10937E-1
9.73022E-1,-2.11792E-1
9.73205E-1,-2.11120E-1
9.72168E-1,-2.10815E-1
9.72717E-1,-2.11975E-1
9.72473E-1,-2.11303E-1
9.72961E-1,-2.11853E-1
9.73266E-1,-2.11914E-1
9.71862E-1,-2.11364E-1
9.71740E-1,-2.12402E-1
9.72717E-1,-2.12036E-1
9.72351E-1,-2.12158E-1
9.72168E-1,-2.12707E-1
9.71679E-1,-2.13195E-1
9.71740E-1,-2.12890E-1
9.7229E-1,-2.12646E-1
9.7229E-1,-2.12707E-1
9.72168E-1,-2.13439E-1
9.72656E-1,-2.14111E-1
9.72595E-1,-2.13928E-1
9.72229E-1,-2.13684E-1
9.71740E-1,-2.14050E-1
9.71679E-1,-2.13867E-1
9.71435E-1,-2.14294E-1
9.71740E-1,-2.14721E-1
9.71557E-1,-2.14172E-1
9.71130E-1,-2.14111E-1
9.71313E-1,-2.14294E-1
9.70947E-1,-2.14233E-1
9.71923E-1,-2.14477E-1
9.71374E-1,-2.15271E-1
9.70947E-1,-2.15454E-1
9.70642E-1,-2.15515E-1
9.71435E-1,-2.15271E-1
9.71252E-1,-2.15698E-1
9.71130E-1,-2.16003E-1
9.71191E-1,-2.15576E-1
9.71496E-1,-2.16796E-1
9.71801E-1,-2.16247E-1
9.71130E-1,-2.16613E-1
9.71069E-1,-2.16674E-1
9.71008E-1,-2.16674E-1
9.69726E-1,-2.1698E-1
9.71008E-1,-2.17407E-1
9.71801E-1,-2.17773E-1
9.70703E-1,-2.17773E-1
9.70397E-1,-2.17102E-1
9.70764E-1,-2.17468E-1
9.71130E-1,-2.17407E-1
9.71618E-1,-2.18353E-1
9.70794E-1,-2.18444E-1
9.70153E-1,-2.18017E-1
9.70459E-1,-2.19116E-1
9.69635E-1,-2.18414E-1
9.70397E-1,-2.18933E-1
9.7052E-1,-2.17742E-1
9.70611E-1,-2.1875E-1
9.70581E-1,-2.19665E-1
9.70581E-1,-2.18841E-1
9.69940E-1,-2.1875E-1
9.70184E-1,-2.19055E-1
9.70092E-1,-2.19085E-1
9.70550E-1,-2.19268E-1
9.70459E-1,-2.19665E-1
9.69390E-1,-2.19696E-1
9.69879E-1,-2.19787E-1
9.70214E-1,-2.20764E-1
9.70581E-1,-2.20947E-1
9.70794E-1,-2.20459E-1
9.69970E-1,-2.2052E-1
9.70184E-1,-2.21160E-1
9.69757E-1,-2.21191E-1
9.70245E-1,-2.21649E-1
9.69177E-1,-2.20703E-1
9.70459E-1,-2.21466E-1
9.70459E-1,-2.21313E-1
9.70397E-1,-2.21862E-1
9.69665E-1,-2.2229E-1
9.69787E-1,-2.21557E-1
9.70275E-1,-2.2229E-1
9.69848E-1,-2.22900E-1
9.69726E-1,-2.22229E-1
9.70336E-1,-2.22717E-1
9.70336E-1,-2.22473E-1
9.69787E-1,-2.24121E-1
9.69177E-1,-2.23266E-1
9.70031E-1,-2.22778E-1
9.69238E-1,-2.23205E-1
9.69604E-1,-2.23571E-1
9.69543E-1,-2.24060E-1
9.70031E-1,-2.23815E-1
9.69116E-1,-2.23449E-1
9.69787E-1,-2.24243E-1
9.69604E-1,-2.24548E-1
9.69299E-1,-2.24426E-1
9.68811E-1,-2.24609E-1
9.69421E-1,-2.24731E-1
9.69055E-1,-2.25036E-1
9.70031E-1,-2.25524E-1
9.69177E-1,-2.25158E-1
9.68933E-1,-2.24975E-1
9.69116E-1,-2.25463E-1
9.69299E-1,-2.24548E-1
9.68261E-1,-2.25280E-1
9.69055E-1,-2.25341E-1
9.68689E-1,-2.26074E-1
9.68811E-1,-2.26196E-1
9.69360E-1,-2.25708E-1
9.68444E-1,-2.26867E-1
9.68383E-1,-2.26501E-1
9.68872E-1,-2.26806E-1
9.68505E-1,-2.27417E-1
9.69421E-1,-2.26806E-1
9.69116E-1,-2.26928E-1
9.68444E-1,-2.26562E-1
9.68689E-1,-2.27233E-1
9.69543E-1,-2.27844E-1
9.68383E-1,-2.27111E-1
9.68963E-1,-2.27813E-1
9.68048E-1,-2.27417E-1
9.68627E-1,-2.28210E-1
9.68994E-1,-2.28118E-1
9.68872E-1,-2.27844E-1
9.69299E-1,-2.28393E-1
9.69299E-1,-2.28210E-1
9.67834E-1,-2.28637E-1
9.68414E-1,-2.28118E-1
9.68048E-1,-2.29126E-1
9.68933E-1,-2.29217E-1
9.68475E-1,-2.29461E-1
9.68597E-1,-2.29919E-1
9.68292E-1,-2.29156E-1
9.68139E-1,-2.29339E-1
9.68200E-1,-2.29858E-1
9.68963E-1,-2.30224E-1
9.68658E-1,-2.30438E-1
9.69360E-1,-2.30041E-1
9.68109E-1,-2.29766E-1
9.69146E-1,-2.29705E-1
9.68261E-1,-2.30316E-1
9.69116E-1,-2.30255E-1
9.68597E-1,-2.30377E-1
9.69451E-1,-2.31353E-1
9.68597E-1,-2.30377E-1
9.67895E-1,-2.30529E-1
9.68505E-1,-2.31140E-1
9.68872E-1,-2.31323E-1
9.68322E-1,-2.31567E-1
9.68689E-1,-2.31567E-1
9.68139E-1,-2.31689E-1
9.68444E-1,-2.32177E-1
9.68689E-1,-2.31567E-1
9.69055E-1,-2.31567E-1
9.68383E-1,-2.31933E-1
9.68872E-1,-2.33093E-1
9.68383E-1,-2.32238E-1
9.68322E-1,-2.32849E-1
9.69055E-1,-2.32299E-1
9.68566E-1,-2.32543E-1
9.68139E-1,-2.32360E-1
9.68017E-1,-2.33093E-1
9.68200E-1,-2.32666E-1
9.68261E-1,-2.33398E-1
9.68566E-1,-2.33093E-1
9.68261E-1,-2.34008E-1
9.68994E-1,-2.33520E-1
9.67834E-1,-2.33459E-1
9.6698E-1,-2.33276E-1
9.68200E-1,-2.34008E-1
9.68933E-1,-2.34252E-1
9.67956E-1,-2.34619E-1
9.68078E-1,-2.34314E-1
9.67956E-1,-2.34436E-1
9.67529E-1,-2.34436E-1
9.68200E-1,-2.34130E-1
9.68017E-1,-2.34924E-1
9.68139E-1,-2.34863E-1
9.68811E-1,-2.34924E-1
9.68261E-1,-2.35229E-1
9.67590E-1,-2.35046E-1
9.67834E-1,-2.35839E-1
9.68139E-1,-2.36022E-1
9.67407E-1,-2.35229E-1
9.67712E-1,-2.35595E-1
9.67346E-1,-2.35900E-1
9.67224E-1,-2.35473E-1
9.67407E-1,-2.36145E-1
9.67895E-1,-2.35900E-1
9.67773E-1,-2.34924E-1
9.68078E-1,-2.36511E-1
9.67773E-1,-2.36206E-1
9.68078E-1,-2.36633E-1
9.68261E-1,-2.37304E-1
9.67956E-1,-2.36633E-1
9.67773E-1,-2.37365E-1
9.67712E-1,-2.37243E-1
9.66796E-1,-2.36206E-1
9.67407E-1,-2.37365E-1
9.67651E-1,-2.36999E-1
9.67712E-1,-2.37487E-1
9.67529E-1,-2.37793E-1
9.67163E-1,-2.37915E-1
9.67529E-1,-2.36999E-1
9.67529E-1,-2.37548E-1
9.67773E-1,-2.38037E-1
9.67895E-1,-2.38037E-1
9.66857E-1,-2.38464E-1
9.67956E-1,-2.37854E-1
9.67895E-1,-2.37854E-1
9.66857E-1,-2.38281E-1
9.67834E-1,-2.38647E-1
9.67559E-1,-2.38830E-1
9.67742E-1,-2.39044E-1
9.67620E-1,-2.38769E-1
9.68170E-1,-2.38647E-1
9.66949E-1,-2.39715E-1
9.67590E-1,-2.39196E-1
9.66613E-1,-2.38983E-1
9.6698E-1,-2.39318E-1
9.68017E-1,-2.39990E-1
9.66430E-1,-2.39624E-1
9.6698E-1,-2.39685E-1
9.66705E-1,-2.40051E-1
9.67620E-1,-2.40051E-1
9.67163E-1,-2.40478E-1
9.66796E-1,-2.40539E-1
9.67224E-1,-2.40875E-1
9.67193E-1,-2.40325E-1
9.66491E-1,-2.40478E-1
9.6698E-1,-2.41058E-1
9.67620E-1,-2.41180E-1
9.67285E-1,-2.41272E-1
9.67102E-1,-2.40661E-1
9.66888E-1,-2.40753E-1
9.66888E-1,-2.41455E-1
9.66369E-1,-2.41760E-1
9.68078E-1,-2.42126E-1
9.66552E-1,-2.41272E-1
9.66552E-1,-2.41394E-1
9.67224E-1,-2.41516E-1
9.66674E-1,-2.42065E-1
9.66857E-1,-2.42309E-1
9.67163E-1,-2.42248E-1
9.6698E-1,-2.42309E-1
9.66674E-1,-2.42736E-1
9.67041E-1,-2.42736E-1
9.66369E-1,-2.42431E-1
9.67285E-1,-2.42981E-1
9.67102E-1,-2.42797E-1
9.66125E-1,-2.43042E-1
9.66674E-1,-2.42614E-1
9.66674E-1,-2.43469E-1
9.6698E-1,-2.43347E-1
9.67102E-1,-2.43408E-1
9.66491E-1,-2.43896E-1
9.66674E-1,-2.44201E-1
9.6698E-1,-2.43896E-1
9.66552E-1,-2.43774E-1
9.66796E-1,-2.42981E-1
9.66796E-1,-2.43713E-1
9.67285E-1,-2.43469E-1
9.66308E-1,-2.44934E-1
9.67163E-1,-2.44689E-1
9.66003E-1,-2.44506E-1
9.66430E-1,-2.45300E-1
9.66491E-1,-2.45605E-1
9.66125E-1,-2.45117E-1
9.66552E-1,-2.44140E-1
9.66064E-1,-2.45422E-1
9.66430E-1,-2.44384E-1
9.66674E-1,-2.45605E-1
9.66003E-1,-2.45239E-1
9.65881E-1,-2.45483E-1
9.66796E-1,-2.45361E-1
9.66125E-1,-2.45849E-1
9.65698E-1,-2.45910E-1
9.66674E-1,-2.46582E-1
9.65728E-1,-2.46948E-1
9.66125E-1,-2.46185E-1
9.66827E-1,-2.46124E-1
9.66766E-1,-2.46490E-1
9.66125E-1,-2.46917E-1
9.66033E-1,-2.47406E-1
9.66644E-1,-2.47100E-1
9.66033E-1,-2.47406E-1
9.65911E-1,-2.46521E-1
9.66186E-1,-2.47100E-1
9.65881E-1,-2.47772E-1
9.66033E-1,-2.47406E-1
9.65759E-1,-2.47589E-1
9.66003E-1,-2.47406E-1
9.65087E-1,-2.48168E-1
9.65332E-1,-2.48413E-1
9.66217E-1,-2.48168E-1
9.65911E-1,-2.48535E-1
9.66491E-1,-2.48657E-1
9.66064E-1,-2.48504E-1
9.66186E-1,-2.49023E-1
9.65667E-1,-2.48748E-1
9.65179E-1,-2.48779E-1
9.65057E-1,-2.47894E-1
9.65240E-1,-2.48779E-1
9.66369E-1,-2.48413E-1
9.65484E-1,-2.48413E-1
9.65301E-1,-2.49084E-1
9.65606E-1,-2.49725E-1
9.64904E-1,-2.5E-1
9.65942E-1,-2.49267E-1
9.65087E-1,-2.49511E-1
9.65576E-1,-2.50061E-1
9.65332E-1,-2.50610E-1
9.65454E-1,-2.50244E-1
9.65393E-1,-2.49816E-1
9.65148E-1,-2.50183E-1
9.66125E-1,-2.50244E-1
9.65698E-1,-2.49816E-1
9.65148E-1,-2.49572E-1
9.65148E-1,-2.50915E-1
9.64965E-1,-2.50976E-1
9.65515E-1,-2.51464E-1
9.64904E-1,-2.50671E-1
9.6521E-1,-2.51098E-1
9.65576E-1,-2.51647E-1
9.65026E-1,-2.51525E-1
9.64782E-1,-2.52197E-1
9.64904E-1,-2.52197E-1
9.64233E-1,-2.51403E-1
9.65332E-1,-2.51281E-1
9.65087E-1,-2.51892E-1
9.65148E-1,-2.51953E-1
9.64843E-1,-2.52014E-1
9.65026E-1,-2.51892E-1
9.64416E-1,-2.52197E-1
9.65026E-1,-2.52868E-1
9.64904E-1,-2.52685E-1
9.64538E-1,-2.53051E-1
9.65332E-1,-2.52929E-1
9.64538E-1,-2.53112E-1
9.64477E-1,-2.52807E-1
9.65148E-1,-2.52624E-1
9.64721E-1,-2.53601E-1
9.64599E-1,-2.53418E-1
9.64782E-1,-2.54089E-1
9.63623E-1,-2.54028E-1
9.63806E-1,-2.53723E-1
9.64294E-1,-2.54150E-1
9.63439E-1,-2.52990E-1
9.64416E-1,-2.54516E-1
9.64538E-1,-2.54638E-1
9.64599E-1,-2.54821E-1
9.64599E-1,-2.54455E-1
9.64538E-1,-2.54821E-1
9.64416E-1,-2.54760E-1
9.64355E-1,-2.54638E-1
9.63317E-1,-2.55615E-1
9.63928E-1,-2.55127E-1
9.64416E-1,-2.54882E-1
9.64294E-1,-2.55188E-1
9.64355E-1,-2.55493E-1
9.64782E-1,-2.56225E-1
9.64111E-1,-2.55127E-1
9.64050E-1,-2.56103E-1
9.64538E-1,-2.56103E-1
9.64233E-1,-2.55859E-1
9.63928E-1,-2.56103E-1
9.64050E-1,-2.56469E-1
9.63806E-1,-2.56774E-1
9.63562E-1,-2.56591E-1
9.63989E-1,-2.57202E-1
9.64294E-1,-2.57263E-1
9.64172E-1,-2.56958E-1
9.64141E-1,-2.56866E-1
9.63256E-1,-2.57110E-1
9.64599E-1,-2.57965E-1
9.64111E-1,-2.57171E-1
9.64813E-1,-2.57446E-1
9.63501E-1,-2.57385E-1
9.64172E-1,-2.57415E-1
9.63653E-1,-2.57385E-1
9.63897E-1,-2.58148E-1
9.64386E-1,-2.58239E-1
9.63012E-1,-2.58544E-1
9.64080E-1,-2.58575E-1
9.63287E-1,-2.58728E-1
9.63501E-1,-2.58850E-1
9.62982E-1,-2.59063E-1
9.64141E-1,-2.57690E-1
9.63684E-1,-2.58483E-1
9.63531E-1,-2.58972E-1
9.63134E-1,-2.58972E-1
9.63867E-1,-2.58972E-1
9.62921E-1,-2.59063E-1
9.63287E-1,-2.59246E-1
9.63287E-1,-2.59674E-1
9.63439E-1,-2.60284E-1
9.63256E-1,-2.60467E-1
9.63531E-1,-2.60009E-1
9.63592E-1,-2.60314E-1
9.63470E-1,-2.60101E-1
9.63134E-1,-2.60345E-1
9.62646E-1,-2.60864E-1
9.63378E-1,-2.60437E-1
9.62280E-1,-2.60803E-1
9.62890E-1,-2.61108E-1
9.63378E-1,-2.60864E-1
9.63256E-1,-2.60437E-1
9.62585E-1,-2.60864E-1
9.63073E-1,-2.61169E-1
9.62585E-1,-2.61962E-1
9.63012E-1,-2.62023E-1
9.63256E-1,-2.60986E-1
9.63317E-1,-2.61474E-1
9.64050E-1,-2.61352E-1
9.63073E-1,-2.61718E-1
9.62219E-1,-2.61718E-1
9.63256E-1,-2.62573E-1
9.62829E-1,-2.62695E-1
9.62097E-1,-2.62451E-1
9.62890E-1,-2.62573E-1
9.63378E-1,-2.62329E-1
9.63378E-1,-2.62390E-1
9.62585E-1,-2.63000E-1
9.62768E-1,-2.63671E-1
9.63012E-1,-2.63183E-1
9.62524E-1,-2.63488E-1
9.62829E-1,-2.63061E-1
9.63317E-1,-2.63183E-1
9.63073E-1,-2.63793E-1
9.62280E-1,-2.63793E-1
9.63012E-1,-2.63855E-1
9.62158E-1,-2.63549E-1
9.63073E-1,-2.63793E-1
9.62951E-1,-2.64648E-1
9.62280E-1,-2.64526E-1
9.62097E-1,-2.63793E-1
9.62707E-1,-2.64770E-1
9.62890E-1,-2.64648E-1
9.62219E-1,-2.64709E-1
9.61975E-1,-2.65380E-1
9.62158E-1,-2.64587E-1
9.62616E-1,-2.64495E-1
9.61608E-1,-2.64892E-1
9.62219E-1,-2.65686E-1
9.62341E-1,-2.65136E-1
9.62310E-1,-2.64923E-1
9.62005E-1,-2.65716E-1
9.62280E-1,-2.65991E-1
9.62310E-1,-2.65899E-1
9.62066E-1,-2.66296E-1
9.62249E-1,-2.66540E-1
9.62066E-1,-2.65777E-1
9.63012E-1,-2.65502E-1
9.61822E-1,-2.67120E-1
9.62310E-1,-2.66723E-1
9.62554E-1,-2.67181E-1
9.61486E-1,-2.66937E-1
9.61914E-1,-2.66632E-1
9.61700E-1,-2.66693E-1
9.62005E-1,-2.66967E-1
9.62127E-1,-2.67822E-1
9.62249E-1,-2.67547E-1
9.61883E-1,-2.67669E-1
9.61914E-1,-2.68219E-1
9.61608E-1,-2.67883E-1
9.61395E-1,-2.67730E-1
9.61608E-1,-2.67517E-1
9.61792E-1,-2.68920E-1
9.61914E-1,-2.68859E-1
9.62158E-1,-2.68249E-1
9.61975E-1,-2.68493E-1
9.61425E-1,-2.67822E-1
9.61608E-1,-2.68249E-1
9.61792E-1,-2.68615E-1
9.62524E-1,-2.68737E-1
9.60693E-1,-2.68798E-1
9.61364E-1,-2.68737E-1
9.61731E-1,-2.69775E-1
9.61181E-1,-2.69714E-1
9.61242E-1,-2.69470E-1
9.61547E-1,-2.69592E-1
9.61792E-1,-2.69531E-1
9.61731E-1,-2.69775E-1
9.61059E-1,-2.69775E-1
9.61914E-1,-2.69531E-1
9.61669E-1,-2.69531E-1
9.61059E-1,-2.69836E-1
9.61059E-1,-2.70324E-1
9.60998E-1,-2.71301E-1
9.61547E-1,-2.70141E-1
9.61547E-1,-2.70629E-1
9.61914E-1,-2.70690E-1
9.60815E-1,-2.70202E-1
9.60998E-1,-2.70752E-1
9.61242E-1,-2.71179E-1
9.61792E-1,-2.71606E-1
9.61120E-1,-2.71118E-1
9.60998E-1,-2.70813E-1
9.61364E-1,-2.71728E-1
9.61181E-1,-2.71240E-1
9.61181E-1,-2.72155E-1
9.60937E-1,-2.72033E-1
9.60998E-1,-2.71301E-1
9.60998E-1,-2.71789E-1
9.60998E-1,-2.72094E-1
9.60998E-1,-2.72155E-1
9.61181E-1,-2.71667E-1
9.60937E-1,-2.72094E-1
9.61364E-1,-2.72338E-1
9.61059E-1,-2.72644E-1
9.60510E-1,-2.72338E-1
9.60876E-1,-2.72766E-1
9.60693E-1,-2.72888E-1
9.60632E-1,-2.72949E-1
9.61425E-1,-2.72949E-1
9.60815E-1,-2.73437E-1
9.61059E-1,-2.73315E-1
9.60571E-1,-2.73071E-1
9.60693E-1,-2.73376E-1
9.60754E-1,-2.73376E-1
9.60876E-1,-2.74414E-1
9.60205E-1,-2.74353E-1
9.60266E-1,-2.74108E-1
9.60388E-1,-2.73864E-1
9.60876E-1,-2.74108E-1
9.60876E-1,-2.74292E-1
9.60998E-1,-2.73864E-1
9.60449E-1,-2.74292E-1
9.59899E-1,-2.74597E-1
9.59899E-1,-2.74902E-1
9.60571E-1,-2.75146E-1
9.60571E-1,-2.74719E-1
9.60388E-1,-2.74536E-1
9.60449E-1,-2.75695E-1
9.59838E-1,-2.75146E-1
9.60907E-1,-2.76184E-1
9.60327E-1,-2.75482E-1
9.60784E-1,-2.75238E-1
9.59472E-1,-2.76001E-1
9.60388E-1,-2.75939E-1
9.60174E-1,-2.75726E-1
9.60601E-1,-2.75543E-1
9.59747E-1,-2.76428E-1
9.60205E-1,-2.75817E-1
9.59442E-1,-2.76031E-1
9.60449E-1,-2.75787E-1
9.60662E-1,-2.76458E-1
9.60083E-1,-2.76275E-1
9.60235E-1,-2.76519E-1
9.60144E-1,-2.76306E-1
9.59655E-1,-2.76733E-1
9.59411E-1,-2.77252E-1
9.59503E-1,-2.77374E-1
9.59808E-1,-2.77221E-1
9.59777E-1,-2.77679E-1
9.60022E-1,-2.77496E-1
9.59350E-1,-2.77282E-1
9.60357E-1,-2.78106E-1
9.59503E-1,-2.77252E-1
9.59838E-1,-2.78472E-1
9.59472E-1,-2.77587E-1
9.59350E-1,-2.77954E-1
9.59838E-1,-2.78625E-1
9.59228E-1,-2.78198E-1
9.60083E-1,-2.78869E-1
9.59838E-1,-2.78442E-1
9.59533E-1,-2.79113E-1
9.59960E-1,-2.7948E-1
9.59472E-1,-2.78686E-1
9.59838E-1,-2.79296E-1
9.59350E-1,-2.78442E-1
9.59594E-1,-2.7948E-1
9.59777E-1,-2.78747E-1
9.59411E-1,-2.78503E-1
9.59594E-1,-2.79418E-1
9.59167E-1,-2.79174E-1
9.59228E-1,-2.78930E-1
9.59289E-1,-2.79907E-1
9.58923E-1,-2.80090E-1
9.59899E-1,-2.79541E-1
9.59228E-1,-2.79663E-1
9.58618E-1,-2.79907E-1
9.59411E-1,-2.80212E-1
9.59289E-1,-2.79541E-1
9.58618E-1,-2.80151E-1
9.59228E-1,-2.80761E-1
9.59350E-1,-2.79907E-1
9.58740E-1,-2.79968E-1
9.58984E-1,-2.80212E-1
